時間	通訊碼
----------------------------------------------------------------------------------------------------
00:40:26.051	OPC UA settings saved: {'application_Name': 'ModUA', 'host_name': 'ModUA', 'namespace': 'ModUA', 'port': '48480', 'product_uri': 'opc.tcp://192.168.1.101:48480', 'max_sessions': '4096', 'publish_interval': '1000', 'authentication': 'Anonymous', 'username': '', 'password': '', 'organization': 'Organization', 'organization_unit': 'Unit', 'locality': 'Locality', 'state': 'State', 'country': 'tw', 'cert_validity': '20', 'policy_none': True, 'policy_sign_aes128': False, 'policy_sign_aes256': False, 'policy_sign_basic256sha256': False, 'policy_encrypt_aes128': False, 'policy_encrypt_aes256': False, 'policy_encrypt_basic256sha256': False, 'auto_generate': True}
00:40:26.213	OPC UA: Running
01:06:15.594	TX: | 00 01 00 00 00 06 01 03 00 5F 00 32 |
01:06:15.599	RX: | 00 01 00 00 00 67 01 03 64 00 00 42 48 00 00 40 A0 00 00 00 00 00 00 40 00 00 00 44 16 00 00 40 40 00 00 41 C8 00 00 40 A0 00 00 41 C8 00 00 00 00 00 00 00 00 00 00 00 00 00 00 00 00 00 00 C2 48 00 00 00 00 00 00 41 F0 00 00 41 F0 00 00 44 16 26 00 46 FA 40 50 3E 53 00 00 00 00 00 00 00 00 00 00 00 00 F1 AB 3E 52 00 00 00 00 |
01:06:15.677	TX: | 00 01 00 00 00 06 01 03 00 6A 00 18 |
01:06:15.691	RX: | 00 01 00 00 00 33 01 03 30 00 00 40 40 00 00 41 C8 00 00 40 A0 00 00 41 C8 00 00 00 00 00 00 00 00 00 00 00 00 00 00 00 00 00 00 C2 C8 00 00 00 00 00 00 41 F0 00 00 41 F0 |
01:06:16.634	TX: | 00 01 00 00 00 06 01 03 00 5F 00 32 |
01:06:16.639	RX: | 00 01 00 00 00 67 01 03 64 00 00 42 48 00 00 40 A0 00 00 00 00 00 00 40 00 00 00 44 16 00 00 40 40 00 00 41 C8 00 00 40 A0 00 00 41 C8 00 00 00 00 00 00 00 00 00 00 00 00 00 00 00 00 00 00 C2 48 00 00 00 00 00 00 41 F0 00 00 41 F0 00 00 44 16 26 00 46 FA F1 AB 3E 52 00 00 00 00 00 00 00 00 00 00 00 00 88 CE 3E 52 00 00 00 00 |
01:06:16.758	TX: | 00 01 00 00 00 06 01 03 00 6A 00 18 |
01:06:16.773	RX: | 00 01 00 00 00 33 01 03 30 00 00 40 40 00 00 41 C8 00 00 40 A0 00 00 41 C8 00 00 00 00 00 00 00 00 00 00 00 00 00 00 00 00 00 00 C2 C8 00 00 00 00 00 00 41 F0 00 00 41 F0 |
01:06:17.675	TX: | 00 01 00 00 00 06 01 03 00 5F 00 32 |
01:06:17.681	RX: | 00 01 00 00 00 67 01 03 64 00 00 42 48 00 00 40 A0 00 00 00 00 00 00 40 00 00 00 44 16 00 00 40 40 00 00 41 C8 00 00 40 A0 00 00 41 C8 00 00 00 00 00 00 00 00 00 00 00 00 00 00 00 00 00 00 C2 48 00 00 00 00 00 00 41 F0 00 00 41 F0 00 00 44 16 26 00 46 FA D7 73 3E 52 00 00 00 00 00 00 00 00 00 00 00 00 D7 73 3E 52 4A 00 39 9D |
01:06:17.872	TX: | 00 01 00 00 00 06 01 03 00 6A 00 18 |
01:06:17.884	RX: | 00 01 00 00 00 33 01 03 30 00 00 40 40 00 00 41 C8 00 00 40 A0 00 00 41 C8 00 00 00 00 00 00 00 00 00 00 00 00 00 00 00 00 00 00 C2 C8 00 00 00 00 00 00 41 F0 00 00 41 F0 |
01:06:18.706	TX: | 00 01 00 00 00 06 01 03 00 5F 00 32 |
01:06:18.716	RX: | 00 01 00 00 00 67 01 03 64 00 00 42 48 00 00 40 A0 00 00 00 00 00 00 40 00 00 00 44 16 00 00 40 40 00 00 41 C8 00 00 40 A0 00 00 41 C8 00 00 00 00 00 00 00 00 00 00 00 00 00 00 00 00 00 00 C2 48 00 00 00 00 00 00 41 F0 00 00 41 F0 00 00 44 16 26 00 46 FA A3 05 3E 52 00 00 00 00 00 00 00 00 00 00 00 00 A3 05 3E 52 00 00 00 00 |
01:06:18.932	TX: | 00 01 00 00 00 06 01 03 00 6A 00 18 |
01:06:18.946	RX: | 00 01 00 00 00 33 01 03 30 00 00 40 40 00 00 41 C8 00 00 40 A0 00 00 41 C8 00 00 00 00 00 00 00 00 00 00 00 00 00 00 00 00 00 00 C2 C8 00 00 00 00 00 00 41 F0 00 00 41 F0 |
01:06:19.757	TX: | 00 01 00 00 00 06 01 03 00 5F 00 32 |
01:06:19.763	RX: | 00 01 00 00 00 67 01 03 64 00 00 42 48 00 00 40 A0 00 00 00 00 00 00 40 00 00 00 44 16 00 00 40 40 00 00 41 C8 00 00 40 A0 00 00 41 C8 00 00 00 00 00 00 00 00 00 00 00 00 00 00 00 00 00 00 C2 48 00 00 00 00 00 00 41 F0 00 00 41 F0 00 00 44 16 26 00 46 FA 1F F2 3E 52 00 00 00 00 00 00 00 00 00 00 00 00 1F F2 3E 52 00 00 00 00 |
01:06:19.990	TX: | 00 01 00 00 00 06 01 03 00 6A 00 18 |
01:06:20.008	RX: | 00 01 00 00 00 33 01 03 30 00 00 40 40 00 00 41 C8 00 00 40 A0 00 00 41 C8 00 00 00 00 00 00 00 00 00 00 00 00 00 00 00 00 00 00 C2 C8 00 00 00 00 00 00 41 F0 00 00 41 F0 |
01:06:20.810	TX: | 00 01 00 00 00 06 01 03 00 5F 00 32 |
01:06:20.817	RX: | 00 01 00 00 00 67 01 03 64 00 00 42 48 00 00 40 A0 00 00 00 00 00 00 40 00 00 00 44 16 00 00 40 40 00 00 41 C8 00 00 40 A0 00 00 41 C8 00 00 00 00 00 00 00 00 00 00 00 00 00 00 00 00 00 00 C2 48 00 00 00 00 00 00 41 F0 00 00 41 F0 00 00 44 16 26 00 46 FA D1 4D 3E 51 00 00 00 00 00 00 00 00 00 00 00 00 D1 4D 3E 51 00 00 00 00 |
01:06:21.042	TX: | 00 01 00 00 00 06 01 03 00 6A 00 18 |
01:06:21.056	RX: | 00 01 00 00 00 33 01 03 30 00 00 40 40 00 00 41 C8 00 00 40 A0 00 00 41 C8 00 00 00 00 00 00 00 00 00 00 00 00 00 00 00 00 00 00 C2 C8 00 00 00 00 00 00 41 F0 00 00 41 F0 |
01:06:21.864	TX: | 00 01 00 00 00 06 01 03 00 5F 00 32 |
01:06:21.869	RX: | 00 01 00 00 00 67 01 03 64 00 00 42 48 00 00 40 A0 00 00 00 00 00 00 40 00 00 00 44 16 00 00 40 40 00 00 41 C8 00 00 40 A0 00 00 41 C8 00 00 00 00 00 00 00 00 00 00 00 00 00 00 00 00 00 00 C2 48 00 00 00 00 00 00 41 F0 00 00 41 F0 00 00 44 16 26 00 46 FA 3A 28 3E 52 00 00 00 00 00 00 00 00 00 00 00 00 3A 28 3E 52 00 00 00 00 |
01:06:22.096	TX: | 00 01 00 00 00 06 01 03 00 6A 00 18 |
01:06:22.109	RX: | 00 01 00 00 00 33 01 03 30 00 00 40 40 00 00 41 C8 00 00 40 A0 00 00 41 C8 00 00 00 00 00 00 00 00 00 00 00 00 00 00 00 00 00 00 C2 C8 00 00 00 00 00 00 41 F0 00 00 41 F0 |
01:06:22.892	TX: | 00 01 00 00 00 06 01 03 00 5F 00 32 |
01:06:22.897	RX: | 00 01 00 00 00 67 01 03 64 00 00 42 48 00 00 40 A0 00 00 00 00 00 00 40 00 00 00 44 16 00 00 40 40 00 00 41 C8 00 00 40 A0 00 00 41 C8 00 00 00 00 00 00 00 00 00 00 00 00 00 00 00 00 00 00 C2 48 00 00 00 00 00 00 41 F0 00 00 41 F0 00 00 44 16 26 00 46 FA D7 72 3E 52 00 00 00 00 00 00 00 00 00 00 00 00 D7 72 3E 52 00 00 00 00 |
01:06:23.151	TX: | 00 01 00 00 00 06 01 03 00 6A 00 18 |
01:06:23.165	RX: | 00 01 00 00 00 33 01 03 30 00 00 40 40 00 00 41 C8 00 00 40 A0 00 00 41 C8 00 00 00 00 00 00 00 00 00 00 00 00 00 00 00 00 00 00 C2 C8 00 00 00 00 00 00 41 F0 00 00 41 F0 |
01:06:23.934	TX: | 00 01 00 00 00 06 01 03 00 5F 00 32 |
01:06:23.942	RX: | 00 01 00 00 00 67 01 03 64 00 00 42 48 00 00 40 A0 00 00 00 00 00 00 40 00 00 00 44 16 00 00 40 40 00 00 41 C8 00 00 40 A0 00 00 41 C8 00 00 00 00 00 00 00 00 00 00 00 00 00 00 00 00 00 00 C2 48 00 00 00 00 00 00 41 F0 00 00 41 F0 00 00 44 16 26 00 46 FA 74 BD 3E 53 00 00 00 00 00 00 00 00 00 00 00 00 74 BD 3E 53 00 00 00 00 |
01:06:24.207	TX: | 00 01 00 00 00 06 01 03 00 6A 00 18 |
01:06:24.220	RX: | 00 01 00 00 00 33 01 03 30 00 00 40 40 00 00 41 C8 00 00 40 A0 00 00 41 C8 00 00 00 00 00 00 00 00 00 00 00 00 00 00 00 00 00 00 C2 C8 00 00 00 00 00 00 41 F0 00 00 41 F0 |
01:06:24.983	TX: | 00 01 00 00 00 06 01 03 00 5F 00 32 |
01:06:24.989	RX: | 00 01 00 00 00 67 01 03 64 00 00 42 48 00 00 40 A0 00 00 00 00 00 00 40 00 00 00 44 16 00 00 40 40 00 00 41 C8 00 00 40 A0 00 00 41 C8 00 00 00 00 00 00 00 00 00 00 00 00 00 00 00 00 00 00 C2 48 00 00 00 00 00 00 41 F0 00 00 41 F0 00 00 44 16 26 00 46 FA 40 4E 3E 53 00 00 00 00 00 00 00 00 00 00 00 00 40 4E 3E 53 00 00 00 00 |
01:06:25.264	TX: | 00 01 00 00 00 06 01 03 00 6A 00 18 |
01:06:25.278	RX: | 00 01 00 00 00 33 01 03 30 00 00 40 40 00 00 41 C8 00 00 40 A0 00 00 41 C8 00 00 00 00 00 00 00 00 00 00 00 00 00 00 00 00 00 00 C2 C8 00 00 00 00 00 00 41 F0 00 00 41 F0 |
01:06:26.025	TX: | 00 01 00 00 00 06 01 03 00 5F 00 32 |
01:06:26.031	RX: | 00 01 00 00 00 67 01 03 64 00 00 42 48 00 00 40 A0 00 00 00 00 00 00 40 00 00 00 44 16 00 00 40 40 00 00 41 C8 00 00 40 A0 00 00 41 C8 00 00 00 00 00 00 00 00 00 00 00 00 00 00 00 00 00 00 C2 48 00 00 00 00 00 00 41 F0 00 00 41 F0 00 00 44 16 26 00 46 FA 8E F5 3E 53 00 00 00 00 00 00 00 00 00 00 00 00 8E F5 3E 53 00 00 00 00 |
01:06:26.321	TX: | 00 01 00 00 00 06 01 03 00 6A 00 18 |
01:06:26.336	RX: | 00 01 00 00 00 33 01 03 30 00 00 40 40 00 00 41 C8 00 00 40 A0 00 00 41 C8 00 00 00 00 00 00 00 00 00 00 00 00 00 00 00 00 00 00 C2 C8 00 00 00 00 00 00 41 F0 00 00 41 F0 |
01:06:27.065	TX: | 00 01 00 00 00 06 01 03 00 5F 00 32 |
01:06:27.071	RX: | 00 01 00 00 00 67 01 03 64 00 00 42 48 00 00 40 A0 00 00 00 00 00 00 40 00 00 00 44 16 00 00 40 40 00 00 41 C8 00 00 40 A0 00 00 41 C8 00 00 00 00 00 00 00 00 00 00 00 00 00 00 00 00 00 00 C2 48 00 00 00 00 00 00 41 F0 00 00 41 F0 00 00 44 16 26 00 46 FA A9 2A 3E 53 00 00 00 00 00 00 00 00 00 00 00 00 A9 2A 3E 53 00 00 00 00 |
01:06:27.375	TX: | 00 01 00 00 00 06 01 03 00 6A 00 18 |
01:06:27.389	RX: | 00 01 00 00 00 33 01 03 30 00 00 40 40 00 00 41 C8 00 00 40 A0 00 00 41 C8 00 00 00 00 00 00 00 00 00 00 00 00 00 00 00 00 00 00 C2 C8 00 00 00 00 00 00 41 F0 00 00 41 F0 |
01:06:28.105	TX: | 00 01 00 00 00 06 01 03 00 5F 00 32 |
01:06:28.110	RX: | 00 01 00 00 00 67 01 03 64 00 00 42 48 00 00 40 A0 00 00 00 00 00 00 40 00 00 00 44 16 00 00 40 40 00 00 41 C8 00 00 40 A0 00 00 41 C8 00 00 00 00 00 00 00 00 00 00 00 00 00 00 00 00 00 00 C2 48 00 00 00 00 00 00 41 F0 00 00 41 F0 00 00 44 16 26 00 46 FA 40 4E 3E 53 00 00 00 00 00 00 00 00 00 00 00 00 40 4E 3E 53 00 00 00 00 |
01:06:28.431	TX: | 00 01 00 00 00 06 01 03 00 6A 00 18 |
01:06:28.444	RX: | 00 01 00 00 00 33 01 03 30 00 00 40 40 00 00 41 C8 00 00 40 A0 00 00 41 C8 00 00 00 00 00 00 00 00 00 00 00 00 00 00 00 00 00 00 C2 C8 00 00 00 00 00 00 41 F0 00 00 41 F0 |
01:06:29.147	TX: | 00 01 00 00 00 06 01 03 00 5F 00 32 |
01:06:29.153	RX: | 00 01 00 00 00 67 01 03 64 00 00 42 48 00 00 40 A0 00 00 00 00 00 00 40 00 00 00 44 16 00 00 40 40 00 00 41 C8 00 00 40 A0 00 00 41 C8 00 00 00 00 00 00 00 00 00 00 00 00 00 00 00 00 00 00 C2 48 00 00 00 00 00 00 41 F0 00 00 41 F0 00 00 44 16 26 00 46 FA 5A 85 3E 53 00 00 00 00 00 00 00 00 00 00 00 00 5A 85 3E 53 00 00 00 00 |
01:06:29.486	TX: | 00 01 00 00 00 06 01 03 00 6A 00 18 |
01:06:29.501	RX: | 00 01 00 00 00 33 01 03 30 00 00 40 40 00 00 41 C8 00 00 40 A0 00 00 41 C8 00 00 00 00 00 00 00 00 00 00 00 00 00 00 00 00 00 00 C2 C8 00 00 00 00 00 00 41 F0 00 00 41 F0 |
01:06:30.200	TX: | 00 01 00 00 00 06 01 03 00 5F 00 32 |
01:06:30.205	RX: | 00 01 00 00 00 67 01 03 64 00 00 42 48 00 00 40 A0 00 00 00 00 00 00 40 00 00 00 44 16 00 00 40 40 00 00 41 C8 00 00 40 A0 00 00 41 C8 00 00 00 00 00 00 00 00 00 00 00 00 00 00 00 00 00 00 C2 48 00 00 00 00 00 00 41 F0 00 00 41 F0 00 00 44 16 26 00 46 FA 12 05 3E 54 00 00 00 00 00 00 00 00 00 00 00 00 12 05 3E 54 00 00 00 00 |
01:06:30.533	TX: | 00 01 00 00 00 06 01 03 00 6A 00 18 |
01:06:30.555	RX: | 00 01 00 00 00 33 01 03 30 00 00 40 40 00 00 41 C8 00 00 40 A0 00 00 41 C8 00 00 00 00 00 00 00 00 00 00 00 00 00 00 00 00 00 00 C2 C8 00 00 00 00 00 00 41 F0 00 00 41 F0 |
01:06:31.242	TX: | 00 01 00 00 00 06 01 03 00 5F 00 32 |
01:06:31.247	RX: | 00 01 00 00 00 67 01 03 64 00 00 42 48 00 00 40 A0 00 00 00 00 00 00 40 00 00 00 44 16 00 00 40 40 00 00 41 C8 00 00 40 A0 00 00 41 C8 00 00 00 00 00 00 00 00 00 00 00 00 00 00 00 00 00 00 C2 48 00 00 00 00 00 00 41 F0 00 00 41 F0 00 00 44 16 26 00 46 FA F7 CE 3E 53 00 00 00 00 00 00 00 00 00 00 00 00 F7 CE 3E 53 00 00 00 00 |
01:06:31.580	TX: | 00 01 00 00 00 06 01 03 00 6A 00 18 |
01:06:31.594	RX: | 00 01 00 00 00 33 01 03 30 00 00 40 40 00 00 41 C8 00 00 40 A0 00 00 41 C8 00 00 00 00 00 00 00 00 00 00 00 00 00 00 00 00 00 00 C2 C8 00 00 00 00 00 00 41 F0 00 00 41 F0 |
01:06:32.256	TX: | 00 01 00 00 00 06 01 03 00 5F 00 32 |
01:06:32.261	RX: | 00 01 00 00 00 67 01 03 64 00 00 42 48 00 00 40 A0 00 00 00 00 00 00 40 00 00 00 44 16 00 00 40 40 00 00 41 C8 00 00 40 A0 00 00 41 C8 00 00 00 00 00 00 00 00 00 00 00 00 00 00 00 00 00 00 C2 48 00 00 00 00 00 00 41 F0 00 00 41 F0 00 00 44 16 26 00 46 FA C3 60 3E 53 00 00 00 00 00 00 00 00 00 00 00 00 C3 60 3E 53 00 00 00 00 |
01:06:32.620	TX: | 00 01 00 00 00 06 01 03 00 6A 00 18 |
01:06:32.636	RX: | 00 01 00 00 00 33 01 03 30 00 00 40 40 00 00 41 C8 00 00 40 A0 00 00 41 C8 00 00 00 00 00 00 00 00 00 00 00 00 00 00 00 00 00 00 C2 C8 00 00 00 00 00 00 41 F0 00 00 41 F0 |
01:06:33.299	TX: | 00 01 00 00 00 06 01 03 00 5F 00 32 |
01:06:33.305	RX: | 00 01 00 00 00 67 01 03 64 00 00 42 48 00 00 40 A0 00 00 00 00 00 00 40 00 00 00 44 16 00 00 40 40 00 00 41 C8 00 00 40 A0 00 00 41 C8 00 00 00 00 00 00 00 00 00 00 00 00 00 00 00 00 00 00 C2 48 00 00 00 00 00 00 41 F0 00 00 41 F0 00 00 44 16 26 00 46 FA 12 05 3E 54 00 00 00 00 00 00 00 00 00 00 00 00 12 05 3E 54 00 00 00 00 |
01:06:33.440	WRITE_CALL: FC16 addr=95 values=0000 4234
01:06:33.441	TX: | 00 01 00 00 00 0B 01 10 00 5F 00 02 04 00 00 42 34 |
01:06:33.482	RX: | 00 01 00 00 00 06 01 10 00 5F 00 02 |
01:06:33.672	TX: | 00 01 00 00 00 06 01 03 00 6A 00 18 |
01:06:33.686	RX: | 00 01 00 00 00 33 01 03 30 00 00 40 40 00 00 41 C8 00 00 40 A0 00 00 41 C8 00 00 00 00 00 00 00 00 00 00 00 00 00 00 00 00 00 00 C2 C8 00 00 00 00 00 00 41 F0 00 00 41 F0 |
01:06:34.315	TX: | 00 01 00 00 00 06 01 03 00 5F 00 32 |
01:06:34.320	RX: | 00 01 00 00 00 67 01 03 64 00 00 42 34 00 00 40 A0 00 00 00 00 00 00 40 00 00 00 44 16 00 00 40 40 00 00 41 C8 00 00 40 A0 00 00 41 C8 00 00 00 00 00 00 00 00 00 00 00 00 00 00 00 00 00 00 C2 48 00 00 00 00 00 00 41 F0 00 00 41 F0 00 00 44 16 26 00 46 FA 12 05 3E 54 00 00 00 00 00 00 00 00 00 00 00 00 12 05 3E 54 00 00 00 00 |
01:06:34.715	TX: | 00 01 00 00 00 06 01 03 00 6A 00 18 |
01:06:34.737	RX: | 00 01 00 00 00 33 01 03 30 00 00 40 40 00 00 41 C8 00 00 40 A0 00 00 41 C8 00 00 00 00 00 00 00 00 00 00 00 00 00 00 00 00 00 00 C2 C8 00 00 00 00 00 00 41 F0 00 00 41 F0 |
01:06:35.366	TX: | 00 01 00 00 00 06 01 03 00 5F 00 32 |
01:06:35.372	RX: | 00 01 00 00 00 67 01 03 64 00 00 42 34 00 00 40 A0 00 00 00 00 00 00 40 00 00 00 44 16 00 00 40 40 00 00 41 C8 00 00 40 A0 00 00 41 C8 00 00 00 00 00 00 00 00 00 00 00 00 00 00 00 00 00 00 C2 48 00 00 00 00 00 00 41 F0 00 00 41 F0 00 00 44 16 26 00 46 FA 46 73 3E 54 00 00 00 00 00 00 00 00 00 00 00 00 46 73 3E 54 00 00 00 00 |
01:06:35.754	TX: | 00 01 00 00 00 06 01 03 00 6A 00 18 |
01:06:35.766	RX: | 00 01 00 00 00 33 01 03 30 00 00 40 40 00 00 41 C8 00 00 40 A0 00 00 41 C8 00 00 00 00 00 00 00 00 00 00 00 00 00 00 00 00 00 00 C2 C8 00 00 00 00 00 00 41 F0 00 00 41 F0 |
01:06:36.385	TX: | 00 01 00 00 00 06 01 03 00 5F 00 32 |
01:06:36.395	RX: | 00 01 00 00 00 67 01 03 64 00 00 42 34 00 00 40 A0 00 00 00 00 00 00 40 00 00 00 44 16 00 00 40 40 00 00 41 C8 00 00 40 A0 00 00 41 C8 00 00 00 00 00 00 00 00 00 00 00 00 00 00 00 00 00 00 C2 48 00 00 00 00 00 00 41 F0 00 00 41 F0 00 00 44 16 26 00 46 FA 7A E0 3E 54 00 00 00 00 00 00 00 00 00 00 00 00 7A E0 3E 54 00 00 00 00 |
01:06:36.797	TX: | 00 01 00 00 00 06 01 03 00 6A 00 18 |
01:06:36.810	RX: | 00 01 00 00 00 33 01 03 30 00 00 40 40 00 00 41 C8 00 00 40 A0 00 00 41 C8 00 00 00 00 00 00 00 00 00 00 00 00 00 00 00 00 00 00 C2 C8 00 00 00 00 00 00 41 F0 00 00 41 F0 |
01:06:37.435	TX: | 00 01 00 00 00 06 01 03 00 5F 00 32 |
01:06:37.475	RX: | 00 01 00 00 00 67 01 03 64 00 00 42 34 00 00 40 A0 00 00 00 00 00 00 40 00 00 00 44 16 00 00 40 40 00 00 41 C8 00 00 40 A0 00 00 41 C8 00 00 00 00 00 00 00 00 00 00 00 00 00 00 00 00 00 00 C2 48 00 00 00 00 00 00 41 F0 00 00 41 F0 00 00 44 16 26 00 46 FA C9 86 3E 54 00 00 00 00 00 00 00 00 00 00 00 00 C9 86 3E 54 00 00 00 00 |
01:06:37.852	TX: | 00 01 00 00 00 06 01 03 00 6A 00 18 |
01:06:37.865	RX: | 00 01 00 00 00 33 01 03 30 00 00 40 40 00 00 41 C8 00 00 40 A0 00 00 41 C8 00 00 00 00 00 00 00 00 00 00 00 00 00 00 00 00 00 00 C2 C8 00 00 00 00 00 00 41 F0 00 00 41 F0 |
01:06:38.550	TX: | 00 01 00 00 00 06 01 03 00 5F 00 32 |
01:06:38.588	RX: | 00 01 00 00 00 67 01 03 64 00 00 42 34 00 00 40 A0 00 00 00 00 00 00 40 00 00 00 44 16 00 00 40 40 00 00 41 C8 00 00 40 A0 00 00 41 C8 00 00 00 00 00 00 00 00 00 00 00 00 00 00 00 00 00 00 C2 48 00 00 00 00 00 00 41 F0 00 00 41 F0 00 00 44 16 26 00 46 FA E3 BD 3E 54 00 00 00 00 00 00 00 00 00 00 00 00 E3 BD 3E 54 00 00 00 00 |
01:06:38.890	TX: | 00 01 00 00 00 06 01 03 00 6A 00 18 |
01:06:38.903	RX: | 00 01 00 00 00 33 01 03 30 00 00 40 40 00 00 41 C8 00 00 40 A0 00 00 41 C8 00 00 00 00 00 00 00 00 00 00 00 00 00 00 00 00 00 00 C2 C8 00 00 00 00 00 00 41 F0 00 00 41 F0 |
01:06:39.653	TX: | 00 01 00 00 00 06 01 03 00 5F 00 32 |
01:06:39.659	RX: | 00 01 00 00 00 67 01 03 64 00 00 42 34 00 00 40 A0 00 00 00 00 00 00 40 00 00 00 44 16 00 00 40 40 00 00 41 C8 00 00 40 A0 00 00 41 C8 00 00 00 00 00 00 00 00 00 00 00 00 00 00 00 00 00 00 C2 48 00 00 00 00 00 00 41 F0 00 00 41 F0 00 00 44 16 26 00 46 FA F7 CE 3E 53 00 00 00 00 00 00 00 00 00 00 00 00 F7 CE 3E 53 00 00 00 00 |
01:06:39.931	TX: | 00 01 00 00 00 06 01 03 00 6A 00 18 |
01:06:39.945	RX: | 00 01 00 00 00 33 01 03 30 00 00 40 40 00 00 41 C8 00 00 40 A0 00 00 41 C8 00 00 00 00 00 00 00 00 00 00 00 00 00 00 00 00 00 00 C2 C8 00 00 00 00 00 00 41 F0 00 00 41 F0 |
01:06:40.707	TX: | 00 01 00 00 00 06 01 03 00 5F 00 32 |
01:06:40.714	RX: | 00 01 00 00 00 67 01 03 64 00 00 42 34 00 00 40 A0 00 00 00 00 00 00 40 00 00 00 44 16 00 00 40 40 00 00 41 C8 00 00 40 A0 00 00 41 C8 00 00 00 00 00 00 00 00 00 00 00 00 00 00 00 00 00 00 C2 48 00 00 00 00 00 00 41 F0 00 00 41 F0 00 00 44 16 26 00 46 FA F7 CE 3E 53 00 00 00 00 00 00 00 00 00 00 00 00 F7 CE 3E 53 00 00 00 00 |
01:06:40.986	TX: | 00 01 00 00 00 06 01 03 00 6A 00 18 |
01:06:41.000	RX: | 00 01 00 00 00 33 01 03 30 00 00 40 40 00 00 41 C8 00 00 40 A0 00 00 41 C8 00 00 00 00 00 00 00 00 00 00 00 00 00 00 00 00 00 00 C2 C8 00 00 00 00 00 00 41 F0 00 00 41 F0 |
01:06:41.737	TX: | 00 01 00 00 00 06 01 03 00 5F 00 32 |
01:06:41.746	RX: | 00 01 00 00 00 67 01 03 64 00 00 42 34 00 00 40 A0 00 00 00 00 00 00 40 00 00 00 44 16 00 00 40 40 00 00 41 C8 00 00 40 A0 00 00 41 C8 00 00 00 00 00 00 00 00 00 00 00 00 00 00 00 00 00 00 C2 48 00 00 00 00 00 00 41 F0 00 00 41 F0 00 00 44 16 26 00 46 FA C3 60 3E 53 00 00 00 00 00 00 00 00 00 00 00 00 C3 60 3E 53 00 00 00 00 |
01:06:42.039	TX: | 00 01 00 00 00 06 01 03 00 6A 00 18 |
01:06:42.053	RX: | 00 01 00 00 00 33 01 03 30 00 00 40 40 00 00 41 C8 00 00 40 A0 00 00 41 C8 00 00 00 00 00 00 00 00 00 00 00 00 00 00 00 00 00 00 C2 C8 00 00 00 00 00 00 41 F0 00 00 41 F0 |
01:06:42.815	TX: | 00 01 00 00 00 06 01 03 00 5F 00 32 |
01:06:42.821	RX: | 00 01 00 00 00 67 01 03 64 00 00 42 34 00 00 40 A0 00 00 00 00 00 00 40 00 00 00 44 16 00 00 40 40 00 00 41 C8 00 00 40 A0 00 00 41 C8 00 00 00 00 00 00 00 00 00 00 00 00 00 00 00 00 00 00 C2 48 00 00 00 00 00 00 41 F0 00 00 41 F0 00 00 44 16 26 00 46 FA 8E F2 3E 53 00 00 00 00 00 00 00 00 00 00 00 00 8E F2 3E 53 00 00 00 00 |
01:06:43.092	TX: | 00 01 00 00 00 06 01 03 00 6A 00 18 |
01:06:43.106	RX: | 00 01 00 00 00 33 01 03 30 00 00 40 40 00 00 41 C8 00 00 40 A0 00 00 41 C8 00 00 00 00 00 00 00 00 00 00 00 00 00 00 00 00 00 00 C2 C8 00 00 00 00 00 00 41 F0 00 00 41 F0 |
01:06:43.865	TX: | 00 01 00 00 00 06 01 03 00 5F 00 32 |
01:06:43.871	RX: | 00 01 00 00 00 67 01 03 64 00 00 42 34 00 00 40 A0 00 00 00 00 00 00 40 00 00 00 44 16 00 00 40 40 00 00 41 C8 00 00 40 A0 00 00 41 C8 00 00 00 00 00 00 00 00 00 00 00 00 00 00 00 00 00 00 C2 48 00 00 00 00 00 00 41 F0 00 00 41 F0 00 00 44 16 26 00 46 FA A9 2A 3E 53 00 00 00 00 00 00 00 00 00 00 00 00 A9 2A 3E 53 00 00 00 00 |
01:06:44.145	TX: | 00 01 00 00 00 06 01 03 00 6A 00 18 |
01:06:44.158	RX: | 00 01 00 00 00 33 01 03 30 00 00 40 40 00 00 41 C8 00 00 40 A0 00 00 41 C8 00 00 00 00 00 00 00 00 00 00 00 00 00 00 00 00 00 00 C2 C8 00 00 00 00 00 00 41 F0 00 00 41 F0 |
01:06:44.888	TX: | 00 01 00 00 00 06 01 03 00 5F 00 32 |
01:06:44.894	RX: | 00 01 00 00 00 67 01 03 64 00 00 42 34 00 00 40 A0 00 00 00 00 00 00 40 00 00 00 44 16 00 00 40 40 00 00 41 C8 00 00 40 A0 00 00 41 C8 00 00 00 00 00 00 00 00 00 00 00 00 00 00 00 00 00 00 C2 48 00 00 00 00 00 00 41 F0 00 00 41 F0 00 00 44 16 26 00 46 FA 40 4E 3E 53 00 00 00 00 00 00 00 00 00 00 00 00 40 4E 3E 53 00 00 00 00 |
01:06:45.199	TX: | 00 01 00 00 00 06 01 03 00 6A 00 18 |
01:06:45.212	RX: | 00 01 00 00 00 33 01 03 30 00 00 40 40 00 00 41 C8 00 00 40 A0 00 00 41 C8 00 00 00 00 00 00 00 00 00 00 00 00 00 00 00 00 00 00 C2 C8 00 00 00 00 00 00 41 F0 00 00 41 F0 |
01:06:45.903	TX: | 00 01 00 00 00 06 01 03 00 5F 00 32 |
01:06:45.909	RX: | 00 01 00 00 00 67 01 03 64 00 00 42 34 00 00 40 A0 00 00 00 00 00 00 40 00 00 00 44 16 00 00 40 40 00 00 41 C8 00 00 40 A0 00 00 41 C8 00 00 00 00 00 00 00 00 00 00 00 00 00 00 00 00 00 00 C2 48 00 00 00 00 00 00 41 F0 00 00 41 F0 00 00 44 16 26 00 46 FA 74 BB 3E 53 00 00 00 00 00 00 00 00 00 00 00 00 74 BB 3E 53 00 00 00 00 |
01:06:46.237	TX: | 00 01 00 00 00 06 01 03 00 6A 00 18 |
01:06:46.253	RX: | 00 01 00 00 00 33 01 03 30 00 00 40 40 00 00 41 C8 00 00 40 A0 00 00 41 C8 00 00 00 00 00 00 00 00 00 00 00 00 00 00 00 00 00 00 C2 C8 00 00 00 00 00 00 41 F0 00 00 41 F0 |
01:06:46.928	TX: | 00 01 00 00 00 06 01 03 00 5F 00 32 |
01:06:46.935	RX: | 00 01 00 00 00 67 01 03 64 00 00 42 34 00 00 40 A0 00 00 00 00 00 00 40 00 00 00 44 16 00 00 40 40 00 00 41 C8 00 00 40 A0 00 00 41 C8 00 00 00 00 00 00 00 00 00 00 00 00 00 00 00 00 00 00 C2 48 00 00 00 00 00 00 41 F0 00 00 41 F0 00 00 44 16 26 00 46 FA C3 60 3E 53 00 00 00 00 00 00 00 00 00 00 00 00 C3 60 3E 53 00 00 00 00 |
01:06:47.297	TX: | 00 01 00 00 00 06 01 03 00 6A 00 18 |
01:06:47.310	RX: | 00 01 00 00 00 33 01 03 30 00 00 40 40 00 00 41 C8 00 00 40 A0 00 00 41 C8 00 00 00 00 00 00 00 00 00 00 00 00 00 00 00 00 00 00 C2 C8 00 00 00 00 00 00 41 F0 00 00 41 F0 |
01:06:47.987	TX: | 00 01 00 00 00 06 01 03 00 5F 00 32 |
01:06:48.009	RX: | 00 01 00 00 00 67 01 03 64 00 00 42 34 00 00 40 A0 00 00 00 00 00 00 40 00 00 00 44 16 00 00 40 40 00 00 41 C8 00 00 40 A0 00 00 41 C8 00 00 00 00 00 00 00 00 00 00 00 00 00 00 00 00 00 00 C2 48 00 00 00 00 00 00 41 F0 00 00 41 F0 00 00 44 16 26 00 46 FA F7 CE 3E 53 00 00 00 00 00 00 00 00 00 00 00 00 F7 CE 3E 53 00 00 00 00 |
01:06:48.349	TX: | 00 01 00 00 00 06 01 03 00 6A 00 18 |
01:06:48.364	RX: | 00 01 00 00 00 33 01 03 30 00 00 40 40 00 00 41 C8 00 00 40 A0 00 00 41 C8 00 00 00 00 00 00 00 00 00 00 00 00 00 00 00 00 00 00 C2 C8 00 00 00 00 00 00 41 F0 00 00 41 F0 |
01:06:49.024	TX: | 00 01 00 00 00 06 01 03 00 5F 00 32 |
01:06:49.033	RX: | 00 01 00 00 00 67 01 03 64 00 00 42 34 00 00 40 A0 00 00 00 00 00 00 40 00 00 00 44 16 00 00 40 40 00 00 41 C8 00 00 40 A0 00 00 41 C8 00 00 00 00 00 00 00 00 00 00 00 00 00 00 00 00 00 00 C2 48 00 00 00 00 00 00 41 F0 00 00 41 F0 00 00 44 16 26 00 46 FA 95 18 3E 54 00 00 00 00 00 00 00 00 00 00 00 00 95 18 3E 54 00 00 00 00 |
01:06:49.404	TX: | 00 01 00 00 00 06 01 03 00 6A 00 18 |
01:06:49.417	RX: | 00 01 00 00 00 33 01 03 30 00 00 40 40 00 00 41 C8 00 00 40 A0 00 00 41 C8 00 00 00 00 00 00 00 00 00 00 00 00 00 00 00 00 00 00 C2 C8 00 00 00 00 00 00 41 F0 00 00 41 F0 |
01:06:50.072	TX: | 00 01 00 00 00 06 01 03 00 5F 00 32 |
01:06:50.078	RX: | 00 01 00 00 00 67 01 03 64 00 00 42 34 00 00 40 A0 00 00 00 00 00 00 40 00 00 00 44 16 00 00 40 40 00 00 41 C8 00 00 40 A0 00 00 41 C8 00 00 00 00 00 00 00 00 00 00 00 00 00 00 00 00 00 00 C2 48 00 00 00 00 00 00 41 F0 00 00 41 F0 00 00 44 16 26 00 46 FA E3 BD 3E 54 00 00 00 00 00 00 00 00 00 00 00 00 E3 BD 3E 54 00 00 00 00 |
01:06:50.450	TX: | 00 01 00 00 00 06 01 03 00 6A 00 18 |
01:06:50.464	RX: | 00 01 00 00 00 33 01 03 30 00 00 40 40 00 00 41 C8 00 00 40 A0 00 00 41 C8 00 00 00 00 00 00 00 00 00 00 00 00 00 00 00 00 00 00 C2 C8 00 00 00 00 00 00 41 F0 00 00 41 F0 |
01:06:51.111	TX: | 00 01 00 00 00 06 01 03 00 5F 00 32 |
01:06:51.116	RX: | 00 01 00 00 00 67 01 03 64 00 00 42 34 00 00 40 A0 00 00 00 00 00 00 40 00 00 00 44 16 00 00 40 40 00 00 41 C8 00 00 40 A0 00 00 41 C8 00 00 00 00 00 00 00 00 00 00 00 00 00 00 00 00 00 00 C2 48 00 00 00 00 00 00 41 F0 00 00 41 F0 00 00 44 16 26 00 46 FA C9 86 3E 54 00 00 00 00 00 00 00 00 00 00 00 00 C9 86 3E 54 00 00 00 00 |
01:06:51.499	TX: | 00 01 00 00 00 06 01 03 00 6A 00 18 |
01:06:51.513	RX: | 00 01 00 00 00 33 01 03 30 00 00 40 40 00 00 41 C8 00 00 40 A0 00 00 41 C8 00 00 00 00 00 00 00 00 00 00 00 00 00 00 00 00 00 00 C2 C8 00 00 00 00 00 00 41 F0 00 00 41 F0 |
01:06:52.149	TX: | 00 01 00 00 00 06 01 03 00 5F 00 32 |
01:06:52.154	RX: | 00 01 00 00 00 67 01 03 64 00 00 42 34 00 00 40 A0 00 00 00 00 00 00 40 00 00 00 44 16 00 00 40 40 00 00 41 C8 00 00 40 A0 00 00 41 C8 00 00 00 00 00 00 00 00 00 00 00 00 00 00 00 00 00 00 C2 48 00 00 00 00 00 00 41 F0 00 00 41 F0 00 00 44 16 26 00 46 FA 4C 9A 3E 55 00 00 00 00 00 00 00 00 00 00 00 00 4C 9A 3E 55 00 00 00 00 |
01:06:52.552	TX: | 00 01 00 00 00 06 01 03 00 6A 00 18 |
01:06:52.565	RX: | 00 01 00 00 00 33 01 03 30 00 00 40 40 00 00 41 C8 00 00 40 A0 00 00 41 C8 00 00 00 00 00 00 00 00 00 00 00 00 00 00 00 00 00 00 C2 C8 00 00 00 00 00 00 41 F0 00 00 41 F0 |
01:06:53.164	TX: | 00 01 00 00 00 06 01 03 00 5F 00 32 |
01:06:53.169	RX: | 00 01 00 00 00 67 01 03 64 00 00 42 34 00 00 40 A0 00 00 00 00 00 00 40 00 00 00 44 16 00 00 40 40 00 00 41 C8 00 00 40 A0 00 00 41 C8 00 00 00 00 00 00 00 00 00 00 00 00 00 00 00 00 00 00 C2 48 00 00 00 00 00 00 41 F0 00 00 41 F0 00 00 44 16 26 00 46 FA 4C 98 3E 55 00 00 00 00 00 00 00 00 00 00 00 00 4C 98 3E 55 00 00 00 00 |
01:06:53.608	TX: | 00 01 00 00 00 06 01 03 00 6A 00 18 |
01:06:53.622	RX: | 00 01 00 00 00 33 01 03 30 00 00 40 40 00 00 41 C8 00 00 40 A0 00 00 41 C8 00 00 00 00 00 00 00 00 00 00 00 00 00 00 00 00 00 00 C2 C8 00 00 00 00 00 00 41 F0 00 00 41 F0 |
01:06:54.215	TX: | 00 01 00 00 00 06 01 03 00 5F 00 32 |
01:06:54.220	RX: | 00 01 00 00 00 67 01 03 64 00 00 42 34 00 00 40 A0 00 00 00 00 00 00 40 00 00 00 44 16 00 00 40 40 00 00 41 C8 00 00 40 A0 00 00 41 C8 00 00 00 00 00 00 00 00 00 00 00 00 00 00 00 00 00 00 C2 48 00 00 00 00 00 00 41 F0 00 00 41 F0 00 00 44 16 26 00 46 FA 95 18 3E 54 00 00 00 00 00 00 00 00 00 00 00 00 95 18 3E 54 00 00 00 00 |
01:06:54.665	TX: | 00 01 00 00 00 06 01 03 00 6A 00 18 |
01:06:54.681	RX: | 00 01 00 00 00 33 01 03 30 00 00 40 40 00 00 41 C8 00 00 40 A0 00 00 41 C8 00 00 00 00 00 00 00 00 00 00 00 00 00 00 00 00 00 00 C2 C8 00 00 00 00 00 00 41 F0 00 00 41 F0 |
01:06:55.254	TX: | 00 01 00 00 00 06 01 03 00 5F 00 32 |
01:06:55.259	RX: | 00 01 00 00 00 67 01 03 64 00 00 42 34 00 00 40 A0 00 00 00 00 00 00 40 00 00 00 44 16 00 00 40 40 00 00 41 C8 00 00 40 A0 00 00 41 C8 00 00 00 00 00 00 00 00 00 00 00 00 00 00 00 00 00 00 C2 48 00 00 00 00 00 00 41 F0 00 00 41 F0 00 00 44 16 26 00 46 FA AF 4E 3E 54 00 00 00 00 00 00 00 00 00 00 00 00 AF 4E 3E 54 00 00 00 00 |
01:06:55.700	TX: | 00 01 00 00 00 06 01 03 00 6A 00 18 |
01:06:55.716	RX: | 00 01 00 00 00 33 01 03 30 00 00 40 40 00 00 41 C8 00 00 40 A0 00 00 41 C8 00 00 00 00 00 00 00 00 00 00 00 00 00 00 00 00 00 00 C2 C8 00 00 00 00 00 00 41 F0 00 00 41 F0 |
01:06:56.293	TX: | 00 01 00 00 00 06 01 03 00 5F 00 32 |
01:06:56.298	RX: | 00 01 00 00 00 67 01 03 64 00 00 42 34 00 00 40 A0 00 00 00 00 00 00 40 00 00 00 44 16 00 00 40 40 00 00 41 C8 00 00 40 A0 00 00 41 C8 00 00 00 00 00 00 00 00 00 00 00 00 00 00 00 00 00 00 C2 48 00 00 00 00 00 00 41 F0 00 00 41 F0 00 00 44 16 26 00 46 FA 2C 3B 3E 54 00 00 00 00 00 00 00 00 00 00 00 00 2C 3B 3E 54 00 00 00 00 |
01:06:56.586	WRITE_CALL: FC16 addr=95 values=0000 4248
01:06:56.586	TX: | 00 01 00 00 00 0B 01 10 00 5F 00 02 04 00 00 42 48 |
01:06:56.592	RX: | 00 01 00 00 00 06 01 10 00 5F 00 02 |
01:06:56.738	TX: | 00 01 00 00 00 06 01 03 00 6A 00 18 |
01:06:56.755	RX: | 00 01 00 00 00 33 01 03 30 00 00 40 40 00 00 41 C8 00 00 40 A0 00 00 41 C8 00 00 00 00 00 00 00 00 00 00 00 00 00 00 00 00 00 00 C2 C8 00 00 00 00 00 00 41 F0 00 00 41 F0 |
01:06:57.319	TX: | 00 01 00 00 00 06 01 03 00 5F 00 32 |
01:06:57.327	RX: | 00 01 00 00 00 67 01 03 64 00 00 42 48 00 00 40 A0 00 00 00 00 00 00 40 00 00 00 44 16 00 00 40 40 00 00 41 C8 00 00 40 A0 00 00 41 C8 00 00 00 00 00 00 00 00 00 00 00 00 00 00 00 00 00 00 C2 48 00 00 00 00 00 00 41 F0 00 00 41 F0 00 00 44 16 26 00 46 FA DD 98 3E 53 00 00 00 00 00 00 00 00 00 00 00 00 DD 98 3E 53 00 00 00 00 |
01:06:57.795	TX: | 00 01 00 00 00 06 01 03 00 6A 00 18 |
01:06:57.809	RX: | 00 01 00 00 00 33 01 03 30 00 00 40 40 00 00 41 C8 00 00 40 A0 00 00 41 C8 00 00 00 00 00 00 00 00 00 00 00 00 00 00 00 00 00 00 C2 C8 00 00 00 00 00 00 41 F0 00 00 41 F0 |
01:06:58.367	TX: | 00 01 00 00 00 06 01 03 00 5F 00 32 |
01:06:58.374	RX: | 00 01 00 00 00 67 01 03 64 00 00 42 48 00 00 40 A0 00 00 00 00 00 00 40 00 00 00 44 16 00 00 40 40 00 00 41 C8 00 00 40 A0 00 00 41 C8 00 00 00 00 00 00 00 00 00 00 00 00 00 00 00 00 00 00 C2 48 00 00 00 00 00 00 41 F0 00 00 41 F0 00 00 44 16 26 00 46 FA DD 98 3E 53 00 00 00 00 00 00 00 00 00 00 00 00 DD 98 3E 53 00 00 00 00 |
01:06:58.845	TX: | 00 01 00 00 00 06 01 03 00 6A 00 18 |
01:06:58.860	RX: | 00 01 00 00 00 33 01 03 30 00 00 40 40 00 00 41 C8 00 00 40 A0 00 00 41 C8 00 00 00 00 00 00 00 00 00 00 00 00 00 00 00 00 00 00 C2 C8 00 00 00 00 00 00 41 F0 00 00 41 F0 |
01:06:59.404	TX: | 00 01 00 00 00 06 01 03 00 5F 00 32 |
01:06:59.409	RX: | 00 01 00 00 00 67 01 03 64 00 00 42 48 00 00 40 A0 00 00 00 00 00 00 40 00 00 00 44 16 00 00 40 40 00 00 41 C8 00 00 40 A0 00 00 41 C8 00 00 00 00 00 00 00 00 00 00 00 00 00 00 00 00 00 00 C2 48 00 00 00 00 00 00 41 F0 00 00 41 F0 00 00 44 16 26 00 46 FA DD 98 3E 53 00 00 00 00 00 00 00 00 00 00 00 00 DD 98 3E 53 00 00 00 00 |
01:06:59.884	TX: | 00 01 00 00 00 06 01 03 00 6A 00 18 |
01:06:59.898	RX: | 00 01 00 00 00 33 01 03 30 00 00 40 40 00 00 41 C8 00 00 40 A0 00 00 41 C8 00 00 00 00 00 00 00 00 00 00 00 00 00 00 00 00 00 00 C2 C8 00 00 00 00 00 00 41 F0 00 00 41 F0 |
01:07:00.442	TX: | 00 01 00 00 00 06 01 03 00 5F 00 32 |
01:07:00.447	RX: | 00 01 00 00 00 67 01 03 64 00 00 42 48 00 00 40 A0 00 00 00 00 00 00 40 00 00 00 44 16 00 00 40 40 00 00 41 C8 00 00 40 A0 00 00 41 C8 00 00 00 00 00 00 00 00 00 00 00 00 00 00 00 00 00 00 C2 48 00 00 00 00 00 00 41 F0 00 00 41 F0 00 00 44 16 26 00 46 FA DD 98 3E 53 00 00 00 00 00 00 00 00 00 00 00 00 DD 98 3E 53 00 00 00 00 |
01:07:00.951	TX: | 00 01 00 00 00 06 01 03 00 6A 00 18 |
01:07:00.972	RX: | 00 01 00 00 00 33 01 03 30 00 00 40 40 00 00 41 C8 00 00 40 A0 00 00 41 C8 00 00 00 00 00 00 00 00 00 00 00 00 00 00 00 00 00 00 C2 C8 00 00 00 00 00 00 41 F0 00 00 41 F0 |
01:07:01.483	TX: | 00 01 00 00 00 06 01 03 00 5F 00 32 |
01:07:01.488	RX: | 00 01 00 00 00 67 01 03 64 00 00 42 48 00 00 40 A0 00 00 00 00 00 00 40 00 00 00 44 16 00 00 40 40 00 00 41 C8 00 00 40 A0 00 00 41 C8 00 00 00 00 00 00 00 00 00 00 00 00 00 00 00 00 00 00 C2 48 00 00 00 00 00 00 41 F0 00 00 41 F0 00 00 44 16 26 00 46 FA F7 CE 3E 53 00 00 00 00 00 00 00 00 00 00 00 00 F7 CE 3E 53 00 00 00 00 |
01:07:02.010	TX: | 00 01 00 00 00 06 01 03 00 6A 00 18 |
01:07:02.024	RX: | 00 01 00 00 00 33 01 03 30 00 00 40 40 00 00 41 C8 00 00 40 A0 00 00 41 C8 00 00 00 00 00 00 00 00 00 00 00 00 00 00 00 00 00 00 C2 C8 00 00 00 00 00 00 41 F0 00 00 41 F0 |
01:07:02.523	TX: | 00 01 00 00 00 06 01 03 00 5F 00 32 |
01:07:02.529	RX: | 00 01 00 00 00 67 01 03 64 00 00 42 48 00 00 40 A0 00 00 00 00 00 00 40 00 00 00 44 16 00 00 40 40 00 00 41 C8 00 00 40 A0 00 00 41 C8 00 00 00 00 00 00 00 00 00 00 00 00 00 00 00 00 00 00 C2 48 00 00 00 00 00 00 41 F0 00 00 41 F0 00 00 44 16 26 00 46 FA A9 2B 3E 53 00 00 00 00 00 00 00 00 00 00 00 00 A9 2B 3E 53 00 00 00 00 |
01:07:03.064	TX: | 00 01 00 00 00 06 01 03 00 6A 00 18 |
01:07:03.078	RX: | 00 01 00 00 00 33 01 03 30 00 00 40 40 00 00 41 C8 00 00 40 A0 00 00 41 C8 00 00 00 00 00 00 00 00 00 00 00 00 00 00 00 00 00 00 C2 C8 00 00 00 00 00 00 41 F0 00 00 41 F0 |
01:07:03.562	TX: | 00 01 00 00 00 06 01 03 00 5F 00 32 |
01:07:03.567	RX: | 00 01 00 00 00 67 01 03 64 00 00 42 48 00 00 40 A0 00 00 00 00 00 00 40 00 00 00 44 16 00 00 40 40 00 00 41 C8 00 00 40 A0 00 00 41 C8 00 00 00 00 00 00 00 00 00 00 00 00 00 00 00 00 00 00 C2 48 00 00 00 00 00 00 41 F0 00 00 41 F0 00 00 44 16 26 00 46 FA 74 BD 3E 53 00 00 00 00 00 00 00 00 00 00 00 00 74 BD 3E 53 00 00 00 00 |
01:07:04.120	TX: | 00 01 00 00 00 06 01 03 00 6A 00 18 |
01:07:04.132	RX: | 00 01 00 00 00 33 01 03 30 00 00 40 40 00 00 41 C8 00 00 40 A0 00 00 41 C8 00 00 00 00 00 00 00 00 00 00 00 00 00 00 00 00 00 00 C2 C8 00 00 00 00 00 00 41 F0 00 00 41 F0 |
01:07:04.600	TX: | 00 01 00 00 00 06 01 03 00 5F 00 32 |
01:07:04.605	RX: | 00 01 00 00 00 67 01 03 64 00 00 42 48 00 00 40 A0 00 00 00 00 00 00 40 00 00 00 44 16 00 00 40 40 00 00 41 C8 00 00 40 A0 00 00 41 C8 00 00 00 00 00 00 00 00 00 00 00 00 00 00 00 00 00 00 C2 48 00 00 00 00 00 00 41 F0 00 00 41 F0 00 00 44 16 26 00 46 FA F7 CE 3E 53 00 00 00 00 00 00 00 00 00 00 00 00 F7 CE 3E 53 00 00 00 00 |
01:07:05.174	TX: | 00 01 00 00 00 06 01 03 00 6A 00 18 |
01:07:05.187	RX: | 00 01 00 00 00 33 01 03 30 00 00 40 40 00 00 41 C8 00 00 40 A0 00 00 41 C8 00 00 00 00 00 00 00 00 00 00 00 00 00 00 00 00 00 00 C2 C8 00 00 00 00 00 00 41 F0 00 00 41 F0 |
01:07:05.639	TX: | 00 01 00 00 00 06 01 03 00 5F 00 32 |
01:07:05.644	RX: | 00 01 00 00 00 67 01 03 64 00 00 42 48 00 00 40 A0 00 00 00 00 00 00 40 00 00 00 44 16 00 00 40 40 00 00 41 C8 00 00 40 A0 00 00 41 C8 00 00 00 00 00 00 00 00 00 00 00 00 00 00 00 00 00 00 C2 48 00 00 00 00 00 00 41 F0 00 00 41 F0 00 00 44 16 26 00 46 FA 2C 3D 3E 54 00 00 00 00 00 00 00 00 00 00 00 00 12 05 3E 54 00 00 00 00 |
01:07:06.231	TX: | 00 01 00 00 00 06 01 03 00 6A 00 18 |
01:07:06.244	RX: | 00 01 00 00 00 33 01 03 30 00 00 40 40 00 00 41 C8 00 00 40 A0 00 00 41 C8 00 00 00 00 00 00 00 00 00 00 00 00 00 00 00 00 00 00 C2 C8 00 00 00 00 00 00 41 F0 00 00 41 F0 |
01:07:06.680	TX: | 00 01 00 00 00 06 01 03 00 5F 00 32 |
01:07:06.687	RX: | 00 01 00 00 00 67 01 03 64 00 00 42 48 00 00 40 A0 00 00 00 00 00 00 40 00 00 00 44 16 00 00 40 40 00 00 41 C8 00 00 40 A0 00 00 41 C8 00 00 00 00 00 00 00 00 00 00 00 00 00 00 00 00 00 00 C2 48 00 00 00 00 00 00 41 F0 00 00 41 F0 00 00 44 16 26 00 46 FA C3 60 3E 53 00 00 00 00 00 00 00 00 00 00 00 00 C3 60 3E 53 4A 00 B9 9D |
01:07:07.287	TX: | 00 01 00 00 00 06 01 03 00 6A 00 18 |
01:07:07.301	RX: | 00 01 00 00 00 33 01 03 30 00 00 40 40 00 00 41 C8 00 00 40 A0 00 00 41 C8 00 00 00 00 00 00 00 00 00 00 00 00 00 00 00 00 00 00 C2 C8 00 00 00 00 00 00 41 F0 00 00 41 F0 |
01:07:07.722	TX: | 00 01 00 00 00 06 01 03 00 5F 00 32 |
01:07:07.727	RX: | 00 01 00 00 00 67 01 03 64 00 00 42 48 00 00 40 A0 00 00 00 00 00 00 40 00 00 00 44 16 00 00 40 40 00 00 41 C8 00 00 40 A0 00 00 41 C8 00 00 00 00 00 00 00 00 00 00 00 00 00 00 00 00 00 00 C2 48 00 00 00 00 00 00 41 F0 00 00 41 F0 00 00 44 16 26 00 46 FA 40 4E 3E 53 00 00 00 00 00 00 00 00 00 00 00 00 40 4E 3E 53 00 00 00 00 |
01:07:08.342	TX: | 00 01 00 00 00 06 01 03 00 6A 00 18 |
01:07:08.356	RX: | 00 01 00 00 00 33 01 03 30 00 00 40 40 00 00 41 C8 00 00 40 A0 00 00 41 C8 00 00 00 00 00 00 00 00 00 00 00 00 00 00 00 00 00 00 C2 C8 00 00 00 00 00 00 41 F0 00 00 41 F0 |
01:07:08.746	TX: | 00 01 00 00 00 06 01 03 00 5F 00 32 |
01:07:08.752	RX: | 00 01 00 00 00 67 01 03 64 00 00 42 48 00 00 40 A0 00 00 00 00 00 00 40 00 00 00 44 16 00 00 40 40 00 00 41 C8 00 00 40 A0 00 00 41 C8 00 00 00 00 00 00 00 00 00 00 00 00 00 00 00 00 00 00 C2 48 00 00 00 00 00 00 41 F0 00 00 41 F0 00 00 44 16 26 00 46 FA BD 3D 3E 52 00 00 00 00 00 00 00 00 00 00 00 00 BD 3D 3E 52 00 00 00 00 |
01:07:09.380	TX: | 00 01 00 00 00 06 01 03 00 6A 00 18 |
01:07:09.394	RX: | 00 01 00 00 00 33 01 03 30 00 00 40 40 00 00 41 C8 00 00 40 A0 00 00 41 C8 00 00 00 00 00 00 00 00 00 00 00 00 00 00 00 00 00 00 C2 C8 00 00 00 00 00 00 41 F0 00 00 41 F0 |
01:07:09.798	TX: | 00 01 00 00 00 06 01 03 00 5F 00 32 |
01:07:09.804	RX: | 00 01 00 00 00 67 01 03 64 00 00 42 48 00 00 40 A0 00 00 00 00 00 00 40 00 00 00 44 16 00 00 40 40 00 00 41 C8 00 00 40 A0 00 00 41 C8 00 00 00 00 00 00 00 00 00 00 00 00 00 00 00 00 00 00 C2 48 00 00 00 00 00 00 41 F0 00 00 41 F0 00 00 44 16 26 00 46 FA 54 60 3E 52 00 00 00 00 00 00 00 00 00 00 00 00 54 60 3E 52 00 00 00 00 |
01:07:10.415	TX: | 00 01 00 00 00 06 01 03 00 6A 00 18 |
01:07:10.428	RX: | 00 01 00 00 00 33 01 03 30 00 00 40 40 00 00 41 C8 00 00 40 A0 00 00 41 C8 00 00 00 00 00 00 00 00 00 00 00 00 00 00 00 00 00 00 C2 C8 00 00 00 00 00 00 41 F0 00 00 41 F0 |
01:07:10.847	TX: | 00 01 00 00 00 06 01 03 00 5F 00 32 |
01:07:10.853	RX: | 00 01 00 00 00 67 01 03 64 00 00 42 48 00 00 40 A0 00 00 00 00 00 00 40 00 00 00 44 16 00 00 40 40 00 00 41 C8 00 00 40 A0 00 00 41 C8 00 00 00 00 00 00 00 00 00 00 00 00 00 00 00 00 00 00 C2 48 00 00 00 00 00 00 41 F0 00 00 41 F0 00 00 44 16 26 00 46 FA 3A 2A 3E 52 00 00 00 00 00 00 00 00 00 00 00 00 3A 2A 3E 52 00 00 00 00 |
01:07:11.468	TX: | 00 01 00 00 00 06 01 03 00 6A 00 18 |
01:07:11.482	RX: | 00 01 00 00 00 33 01 03 30 00 00 40 40 00 00 41 C8 00 00 40 A0 00 00 41 C8 00 00 00 00 00 00 00 00 00 00 00 00 00 00 00 00 00 00 C2 C8 00 00 00 00 00 00 41 F0 00 00 41 F0 |
01:07:11.889	TX: | 00 01 00 00 00 06 01 03 00 5F 00 32 |
01:07:11.894	RX: | 00 01 00 00 00 67 01 03 64 00 00 42 48 00 00 40 A0 00 00 00 00 00 00 40 00 00 00 44 16 00 00 40 40 00 00 41 C8 00 00 40 A0 00 00 41 C8 00 00 00 00 00 00 00 00 00 00 00 00 00 00 00 00 00 00 C2 48 00 00 00 00 00 00 41 F0 00 00 41 F0 00 00 44 16 26 00 46 FA 3A 2A 3E 52 00 00 00 00 00 00 00 00 00 00 00 00 3A 2A 3E 52 00 00 00 00 |
01:07:12.524	TX: | 00 01 00 00 00 06 01 03 00 6A 00 18 |
01:07:12.538	RX: | 00 01 00 00 00 33 01 03 30 00 00 40 40 00 00 41 C8 00 00 40 A0 00 00 41 C8 00 00 00 00 00 00 00 00 00 00 00 00 00 00 00 00 00 00 C2 C8 00 00 00 00 00 00 41 F0 00 00 41 F0 |
01:07:12.927	TX: | 00 01 00 00 00 06 01 03 00 5F 00 32 |
01:07:12.933	RX: | 00 01 00 00 00 67 01 03 64 00 00 42 48 00 00 40 A0 00 00 00 00 00 00 40 00 00 00 44 16 00 00 40 40 00 00 41 C8 00 00 40 A0 00 00 41 C8 00 00 00 00 00 00 00 00 00 00 00 00 00 00 00 00 00 00 C2 48 00 00 00 00 00 00 41 F0 00 00 41 F0 00 00 44 16 26 00 46 FA 1F F3 3E 52 00 00 00 00 00 00 00 00 00 00 00 00 1F F3 3E 52 00 00 00 00 |
01:07:13.072	WRITE_CALL: FC16 addr=95 values=0000 4234
01:07:13.072	TX: | 00 01 00 00 00 0B 01 10 00 5F 00 02 04 00 00 42 34 |
01:07:13.112	RX: | 00 01 00 00 00 06 01 10 00 5F 00 02 |
01:07:13.578	TX: | 00 01 00 00 00 06 01 03 00 6A 00 18 |
01:07:13.591	RX: | 00 01 00 00 00 33 01 03 30 00 00 40 40 00 00 41 C8 00 00 40 A0 00 00 41 C8 00 00 00 00 00 00 00 00 00 00 00 00 00 00 00 00 00 00 C2 C8 00 00 00 00 00 00 41 F0 00 00 41 F0 |
01:07:13.941	TX: | 00 01 00 00 00 06 01 03 00 5F 00 32 |
01:07:13.948	RX: | 00 01 00 00 00 67 01 03 64 00 00 42 34 00 00 40 A0 00 00 00 00 00 00 40 00 00 00 44 16 00 00 40 40 00 00 41 C8 00 00 40 A0 00 00 41 C8 00 00 00 00 00 00 00 00 00 00 00 00 00 00 00 00 00 00 C2 48 00 00 00 00 00 00 41 F0 00 00 41 F0 00 00 44 16 26 00 46 FA 05 BD 3E 52 00 00 00 00 00 00 00 00 00 00 00 00 05 BD 3E 52 00 00 00 00 |
01:07:14.634	TX: | 00 01 00 00 00 06 01 03 00 6A 00 18 |
01:07:14.649	RX: | 00 01 00 00 00 33 01 03 30 00 00 40 40 00 00 41 C8 00 00 40 A0 00 00 41 C8 00 00 00 00 00 00 00 00 00 00 00 00 00 00 00 00 00 00 C2 C8 00 00 00 00 00 00 41 F0 00 00 41 F0 |
01:07:14.994	TX: | 00 01 00 00 00 06 01 03 00 5F 00 32 |
01:07:15.000	RX: | 00 01 00 00 00 67 01 03 64 00 00 42 34 00 00 40 A0 00 00 00 00 00 00 40 00 00 00 44 16 00 00 40 40 00 00 41 C8 00 00 40 A0 00 00 41 C8 00 00 00 00 00 00 00 00 00 00 00 00 00 00 00 00 00 00 C2 48 00 00 00 00 00 00 41 F0 00 00 41 F0 00 00 44 16 26 00 46 FA 05 BD 3E 52 00 00 00 00 00 00 00 00 00 00 00 00 05 BD 3E 52 00 00 00 00 |
01:07:15.689	TX: | 00 01 00 00 00 06 01 03 00 6A 00 18 |
01:07:15.703	RX: | 00 01 00 00 00 33 01 03 30 00 00 40 40 00 00 41 C8 00 00 40 A0 00 00 41 C8 00 00 00 00 00 00 00 00 00 00 00 00 00 00 00 00 00 00 C2 C8 00 00 00 00 00 00 41 F0 00 00 41 F0 |
01:07:16.043	TX: | 00 01 00 00 00 06 01 03 00 5F 00 32 |
01:07:16.084	RX: | 00 01 00 00 00 67 01 03 64 00 00 42 34 00 00 40 A0 00 00 00 00 00 00 40 00 00 00 44 16 00 00 40 40 00 00 41 C8 00 00 40 A0 00 00 41 C8 00 00 00 00 00 00 00 00 00 00 00 00 00 00 00 00 00 00 C2 48 00 00 00 00 00 00 41 F0 00 00 41 F0 00 00 44 16 26 00 46 FA 05 BD 3E 52 00 00 00 00 00 00 00 00 00 00 00 00 05 BD 3E 52 00 00 00 00 |
01:07:16.741	TX: | 00 01 00 00 00 06 01 03 00 6A 00 18 |
01:07:16.754	RX: | 00 01 00 00 00 33 01 03 30 00 00 40 40 00 00 41 C8 00 00 40 A0 00 00 41 C8 00 00 00 00 00 00 00 00 00 00 00 00 00 00 00 00 00 00 C2 C8 00 00 00 00 00 00 41 F0 00 00 41 F0 |
01:07:17.140	TX: | 00 01 00 00 00 06 01 03 00 5F 00 32 |
01:07:17.181	RX: | 00 01 00 00 00 67 01 03 64 00 00 42 34 00 00 40 A0 00 00 00 00 00 00 40 00 00 00 44 16 00 00 40 40 00 00 41 C8 00 00 40 A0 00 00 41 C8 00 00 00 00 00 00 00 00 00 00 00 00 00 00 00 00 00 00 C2 48 00 00 00 00 00 00 41 F0 00 00 41 F0 00 00 44 16 26 00 46 FA 05 BD 3E 52 00 00 00 00 00 00 00 00 00 00 00 00 05 BD 3E 52 00 00 00 00 |
01:07:17.798	TX: | 00 01 00 00 00 06 01 03 00 6A 00 18 |
01:07:17.811	RX: | 00 01 00 00 00 33 01 03 30 00 00 40 40 00 00 41 C8 00 00 40 A0 00 00 41 C8 00 00 00 00 00 00 00 00 00 00 00 00 00 00 00 00 00 00 C2 C8 00 00 00 00 00 00 41 F0 00 00 41 F0 |
01:07:18.192	TX: | 00 01 00 00 00 06 01 03 00 5F 00 32 |
01:07:18.203	RX: | 00 01 00 00 00 67 01 03 64 00 00 42 34 00 00 40 A0 00 00 00 00 00 00 40 00 00 00 44 16 00 00 40 40 00 00 41 C8 00 00 40 A0 00 00 41 C8 00 00 00 00 00 00 00 00 00 00 00 00 00 00 00 00 00 00 C2 48 00 00 00 00 00 00 41 F0 00 00 41 F0 00 00 44 16 26 00 46 FA 1F F2 3E 52 00 00 00 00 00 00 00 00 00 00 00 00 1F F2 3E 52 00 00 00 00 |
01:07:18.752	WRITE_CALL: FC16 addr=95 values=0000 4248
01:07:18.752	TX: | 00 01 00 00 00 0B 01 10 00 5F 00 02 04 00 00 42 48 |
01:07:18.793	RX: | 00 01 00 00 00 06 01 10 00 5F 00 02 |
01:07:18.834	TX: | 00 01 00 00 00 06 01 03 00 6A 00 18 |
01:07:18.848	RX: | 00 01 00 00 00 33 01 03 30 00 00 40 40 00 00 41 C8 00 00 40 A0 00 00 41 C8 00 00 00 00 00 00 00 00 00 00 00 00 00 00 00 00 00 00 C2 C8 00 00 00 00 00 00 41 F0 00 00 41 F0 |
01:07:19.270	TX: | 00 01 00 00 00 06 01 03 00 5F 00 32 |
01:07:19.310	RX: | 00 01 00 00 00 67 01 03 64 00 00 42 48 00 00 40 A0 00 00 00 00 00 00 40 00 00 00 44 16 00 00 40 40 00 00 41 C8 00 00 40 A0 00 00 41 C8 00 00 00 00 00 00 00 00 00 00 00 00 00 00 00 00 00 00 C2 48 00 00 00 00 00 00 41 F0 00 00 41 F0 00 00 44 16 26 00 46 FA A3 05 3E 52 00 00 00 00 00 00 00 00 00 00 00 00 A3 05 3E 52 00 00 00 00 |
01:07:19.889	TX: | 00 01 00 00 00 06 01 03 00 6A 00 18 |
01:07:19.902	RX: | 00 01 00 00 00 33 01 03 30 00 00 40 40 00 00 41 C8 00 00 40 A0 00 00 41 C8 00 00 00 00 00 00 00 00 00 00 00 00 00 00 00 00 00 00 C2 C8 00 00 00 00 00 00 41 F0 00 00 41 F0 |
01:07:20.352	TX: | 00 01 00 00 00 06 01 03 00 5F 00 32 |
01:07:20.357	RX: | 00 01 00 00 00 67 01 03 64 00 00 42 48 00 00 40 A0 00 00 00 00 00 00 40 00 00 00 44 16 00 00 40 40 00 00 41 C8 00 00 40 A0 00 00 41 C8 00 00 00 00 00 00 00 00 00 00 00 00 00 00 00 00 00 00 C2 48 00 00 00 00 00 00 41 F0 00 00 41 F0 00 00 44 16 26 00 46 FA 0B E0 3E 53 00 00 00 00 00 00 00 00 00 00 00 00 0B E0 3E 53 00 00 00 00 |
01:07:20.938	TX: | 00 01 00 00 00 06 01 03 00 6A 00 18 |
01:07:20.952	RX: | 00 01 00 00 00 33 01 03 30 00 00 40 40 00 00 41 C8 00 00 40 A0 00 00 41 C8 00 00 00 00 00 00 00 00 00 00 00 00 00 00 00 00 00 00 C2 C8 00 00 00 00 00 00 41 F0 00 00 41 F0 |
01:07:21.389	TX: | 00 01 00 00 00 06 01 03 00 5F 00 32 |
01:07:21.395	RX: | 00 01 00 00 00 67 01 03 64 00 00 42 48 00 00 40 A0 00 00 00 00 00 00 40 00 00 00 44 16 00 00 40 40 00 00 41 C8 00 00 40 A0 00 00 41 C8 00 00 00 00 00 00 00 00 00 00 00 00 00 00 00 00 00 00 C2 48 00 00 00 00 00 00 41 F0 00 00 41 F0 00 00 44 16 26 00 46 FA 0B E0 3E 53 00 00 00 00 00 00 00 00 00 00 00 00 0B E0 3E 53 00 00 00 00 |
01:07:21.993	TX: | 00 01 00 00 00 06 01 03 00 6A 00 18 |
01:07:22.007	RX: | 00 01 00 00 00 33 01 03 30 00 00 40 40 00 00 41 C8 00 00 40 A0 00 00 41 C8 00 00 00 00 00 00 00 00 00 00 00 00 00 00 00 00 00 00 C2 C8 00 00 00 00 00 00 41 F0 00 00 41 F0 |
01:07:22.441	TX: | 00 01 00 00 00 06 01 03 00 5F 00 32 |
01:07:22.446	RX: | 00 01 00 00 00 67 01 03 64 00 00 42 48 00 00 40 A0 00 00 00 00 00 00 40 00 00 00 44 16 00 00 40 40 00 00 41 C8 00 00 40 A0 00 00 41 C8 00 00 00 00 00 00 00 00 00 00 00 00 00 00 00 00 00 00 C2 48 00 00 00 00 00 00 41 F0 00 00 41 F0 00 00 44 16 26 00 46 FA 8E F3 3E 53 00 00 00 00 00 00 00 00 00 00 00 00 8E F3 3E 53 00 00 00 00 |
01:07:23.123	TX: | 00 01 00 00 00 06 01 03 00 6A 00 18 |
01:07:23.136	RX: | 00 01 00 00 00 33 01 03 30 00 00 40 40 00 00 41 C8 00 00 40 A0 00 00 41 C8 00 00 00 00 00 00 00 00 00 00 00 00 00 00 00 00 00 00 C2 C8 00 00 00 00 00 00 41 F0 00 00 41 F0 |
01:07:23.457	TX: | 00 01 00 00 00 06 01 03 00 5F 00 32 |
01:07:23.467	RX: | 00 01 00 00 00 67 01 03 64 00 00 42 48 00 00 40 A0 00 00 00 00 00 00 40 00 00 00 44 16 00 00 40 40 00 00 41 C8 00 00 40 A0 00 00 41 C8 00 00 00 00 00 00 00 00 00 00 00 00 00 00 00 00 00 00 C2 48 00 00 00 00 00 00 41 F0 00 00 41 F0 00 00 44 16 26 00 46 FA 12 06 3E 54 00 00 00 00 00 00 00 00 00 00 00 00 12 06 3E 54 00 00 00 00 |
01:07:24.163	TX: | 00 01 00 00 00 06 01 03 00 6A 00 18 |
01:07:24.183	RX: | 00 01 00 00 00 33 01 03 30 00 00 40 40 00 00 41 C8 00 00 40 A0 00 00 41 C8 00 00 00 00 00 00 00 00 00 00 00 00 00 00 00 00 00 00 C2 C8 00 00 00 00 00 00 41 F0 00 00 41 F0 |
01:07:24.483	TX: | 00 01 00 00 00 06 01 03 00 5F 00 32 |
01:07:24.490	RX: | 00 01 00 00 00 67 01 03 64 00 00 42 48 00 00 40 A0 00 00 00 00 00 00 40 00 00 00 44 16 00 00 40 40 00 00 41 C8 00 00 40 A0 00 00 41 C8 00 00 00 00 00 00 00 00 00 00 00 00 00 00 00 00 00 00 C2 48 00 00 00 00 00 00 41 F0 00 00 41 F0 00 00 44 16 26 00 46 FA 12 05 3E 54 00 00 00 00 00 00 00 00 00 00 00 00 12 05 3E 54 00 00 00 00 |
01:07:25.223	TX: | 00 01 00 00 00 06 01 03 00 6A 00 18 |
01:07:25.236	RX: | 00 01 00 00 00 33 01 03 30 00 00 40 40 00 00 41 C8 00 00 40 A0 00 00 41 C8 00 00 00 00 00 00 00 00 00 00 00 00 00 00 00 00 00 00 C2 C8 00 00 00 00 00 00 41 F0 00 00 41 F0 |
01:07:25.517	TX: | 00 01 00 00 00 06 01 03 00 5F 00 32 |
01:07:25.523	RX: | 00 01 00 00 00 67 01 03 64 00 00 42 48 00 00 40 A0 00 00 00 00 00 00 40 00 00 00 44 16 00 00 40 40 00 00 41 C8 00 00 40 A0 00 00 41 C8 00 00 00 00 00 00 00 00 00 00 00 00 00 00 00 00 00 00 C2 48 00 00 00 00 00 00 41 F0 00 00 41 F0 00 00 44 16 26 00 46 FA F7 CE 3E 53 00 00 00 00 00 00 00 00 00 00 00 00 F7 CE 3E 53 00 00 00 00 |
01:07:26.262	TX: | 00 01 00 00 00 06 01 03 00 6A 00 18 |
01:07:26.278	RX: | 00 01 00 00 00 33 01 03 30 00 00 40 40 00 00 41 C8 00 00 40 A0 00 00 41 C8 00 00 00 00 00 00 00 00 00 00 00 00 00 00 00 00 00 00 C2 C8 00 00 00 00 00 00 41 F0 00 00 41 F0 |
01:07:26.533	TX: | 00 01 00 00 00 06 01 03 00 5F 00 32 |
01:07:26.538	RX: | 00 01 00 00 00 67 01 03 64 00 00 42 48 00 00 40 A0 00 00 00 00 00 00 40 00 00 00 44 16 00 00 40 40 00 00 41 C8 00 00 40 A0 00 00 41 C8 00 00 00 00 00 00 00 00 00 00 00 00 00 00 00 00 00 00 C2 48 00 00 00 00 00 00 41 F0 00 00 41 F0 00 00 44 16 26 00 46 FA 2C 3D 3E 54 00 00 00 00 00 00 00 00 00 00 00 00 2C 3D 3E 54 00 00 00 00 |
01:07:27.320	TX: | 00 01 00 00 00 06 01 03 00 6A 00 18 |
01:07:27.334	RX: | 00 01 00 00 00 33 01 03 30 00 00 40 40 00 00 41 C8 00 00 40 A0 00 00 41 C8 00 00 00 00 00 00 00 00 00 00 00 00 00 00 00 00 00 00 C2 C8 00 00 00 00 00 00 41 F0 00 00 41 F0 |
01:07:27.584	TX: | 00 01 00 00 00 06 01 03 00 5F 00 32 |
01:07:27.589	RX: | 00 01 00 00 00 67 01 03 64 00 00 42 48 00 00 40 A0 00 00 00 00 00 00 40 00 00 00 44 16 00 00 40 40 00 00 41 C8 00 00 40 A0 00 00 41 C8 00 00 00 00 00 00 00 00 00 00 00 00 00 00 00 00 00 00 C2 48 00 00 00 00 00 00 41 F0 00 00 41 F0 00 00 44 16 26 00 46 FA 12 05 3E 54 00 00 00 00 00 00 00 00 00 00 00 00 12 05 3E 54 00 00 00 00 |
14:47:01.799	TX: | 00 01 00 00 00 06 09 04 14 00 00 6C |
14:47:04.814	TX: | 00 01 00 00 00 06 09 04 14 00 00 6C |
14:47:17.591	TX: | 00 01 00 00 00 06 09 04 14 00 00 6C |
14:47:20.605	TX: | 00 01 00 00 00 06 09 04 14 00 00 6C |
14:47:35.208	TX: | 09 04 14 00 00 6C F4 9F |
14:47:35.223	RX: | 09 04 D8 F0 8A 00 02 40 00 80 04 25 23 00 00 01 00 07 52 16 6C 00 00 00 00 10 68 00 00 00 00 28 |
14:47:35.227	RX: | 09 04 D8 F0 8A 00 02 40 00 80 04 25 23 00 00 01 00 07 52 16 6C 00 00 00 00 10 68 00 00 00 00 28 00 2C D8 2A 05 00 24 00 04 03 A9 00 71 00 00 00 00 00 00 15 13 0F 1C 0F 02 15 13 00 00 00 00 00 |
14:47:35.234	RX: | 09 04 D8 F0 8A 00 02 40 00 80 04 25 23 00 00 01 00 07 52 16 6C 00 00 00 00 10 68 00 00 00 00 28 00 2C D8 2A 05 00 24 00 04 03 A9 00 71 00 00 00 00 00 00 15 13 0F 1C 0F 02 15 13 00 00 00 00 00 80 30 37 00 DC 00 DA 00 FA 00 FA 00 00 00 00 00 0E 00 0E 00 DA 00 DC 00 DC 00 EB 00 FA 01 9E 00 |
14:47:35.239	RX: | 09 04 D8 F0 8A 00 02 40 00 80 04 25 23 00 00 01 00 07 52 16 6C 00 00 00 00 10 68 00 00 00 00 28 00 2C D8 2A 05 00 24 00 04 03 A9 00 71 00 00 00 00 00 00 15 13 0F 1C 0F 02 15 13 00 00 00 00 00 80 30 37 00 DC 00 DA 00 FA 00 FA 00 00 00 00 00 0E 00 0E 00 DA 00 DC 00 DC 00 EB 00 FA 01 9E 00 FA 00 00 0F 02 0F 0C 0F 08 0F 09 0F 08 0F 0A 0F 0F 0F 0D 0F 0C 0F 0D 0F 14 0F 16 0F 1C 0F 11 00 |
14:47:35.244	RX: | 09 04 D8 F0 8A 00 02 40 00 80 04 25 23 00 00 01 00 07 52 16 6C 00 00 00 00 10 68 00 00 00 00 28 00 2C D8 2A 05 00 24 00 04 03 A9 00 71 00 00 00 00 00 00 15 13 0F 1C 0F 02 15 13 00 00 00 00 00 80 30 37 00 DC 00 DA 00 FA 00 FA 00 00 00 00 00 0E 00 0E 00 DA 00 DC 00 DC 00 EB 00 FA 01 9E 00 FA 00 00 0F 02 0F 0C 0F 08 0F 09 0F 08 0F 0A 0F 0F 0F 0D 0F 0C 0F 0D 0F 14 0F 16 0F 1C 0F 11 00 00 00 00 50 61 6E 61 73 6F 6E 69 63 00 00 00 00 00 00 00 42 4A 2D 44 43 42 30 36 42 2D 00 00 00 |
14:47:35.250	RX: | 09 04 D8 F0 8A 00 02 40 00 80 04 25 23 00 00 01 00 07 52 16 6C 00 00 00 00 10 68 00 00 00 00 28 00 2C D8 2A 05 00 24 00 04 03 A9 00 71 00 00 00 00 00 00 15 13 0F 1C 0F 02 15 13 00 00 00 00 00 80 30 37 00 DC 00 DA 00 FA 00 FA 00 00 00 00 00 0E 00 0E 00 DA 00 DC 00 DC 00 EB 00 FA 01 9E 00 FA 00 00 0F 02 0F 0C 0F 08 0F 09 0F 08 0F 0A 0F 0F 0F 0D 0F 0C 0F 0D 0F 14 0F 16 0F 1C 0F 11 00 00 00 00 50 61 6E 61 73 6F 6E 69 63 00 00 00 00 00 00 00 42 4A 2D 44 43 42 30 36 42 2D 00 00 00 00 00 00 2C 4E 00 04 00 00 01 11 00 10 07 12 06 02 00 24 32 32 30 32 31 34 41 53 44 34 30 30 34 |
14:47:35.256	RX: | 09 04 D8 F0 8A 00 02 40 00 80 04 25 23 00 00 01 00 07 52 16 6C 00 00 00 00 10 68 00 00 00 00 28 00 2C D8 2A 05 00 24 00 04 03 A9 00 71 00 00 00 00 00 00 15 13 0F 1C 0F 02 15 13 00 00 00 00 00 80 30 37 00 DC 00 DA 00 FA 00 FA 00 00 00 00 00 0E 00 0E 00 DA 00 DC 00 DC 00 EB 00 FA 01 9E 00 FA 00 00 0F 02 0F 0C 0F 08 0F 09 0F 08 0F 0A 0F 0F 0F 0D 0F 0C 0F 0D 0F 14 0F 16 0F 1C 0F 11 00 00 00 00 50 61 6E 61 73 6F 6E 69 63 00 00 00 00 00 00 00 42 4A 2D 44 43 42 30 36 42 2D 00 00 00 00 00 00 2C 4E 00 04 00 00 01 11 00 10 07 12 06 02 00 24 32 32 30 32 31 34 41 53 44 34 30 30 34 47 46 30 00 00 00 00 00 00 00 00 00 00 00 00 00 00 00 00 00 00 64 06 03 00 07 29 65 7C |
14:47:38.413	TX: | 09 04 14 00 00 6C F4 9F |
14:47:38.427	RX: | 09 04 D8 F0 8A 00 02 40 00 80 04 25 23 00 00 01 00 07 52 16 6C 00 00 00 00 10 68 00 00 00 00 28 |
14:47:38.433	RX: | 09 04 D8 F0 8A 00 02 40 00 80 04 25 23 00 00 01 00 07 52 16 6C 00 00 00 00 10 68 00 00 00 00 28 00 2C D8 2A 05 00 24 00 04 03 A9 00 71 00 00 00 00 00 00 15 13 0F 1C 0F 02 15 13 00 00 00 00 00 |
14:47:38.438	RX: | 09 04 D8 F0 8A 00 02 40 00 80 04 25 23 00 00 01 00 07 52 16 6C 00 00 00 00 10 68 00 00 00 00 28 00 2C D8 2A 05 00 24 00 04 03 A9 00 71 00 00 00 00 00 00 15 13 0F 1C 0F 02 15 13 00 00 00 00 00 80 30 37 00 DC 00 DA 00 FA 00 FA 00 00 00 00 00 0E 00 0E 00 DA 00 DC 00 DC 00 EB 00 FA 01 9E 00 |
14:47:38.443	RX: | 09 04 D8 F0 8A 00 02 40 00 80 04 25 23 00 00 01 00 07 52 16 6C 00 00 00 00 10 68 00 00 00 00 28 00 2C D8 2A 05 00 24 00 04 03 A9 00 71 00 00 00 00 00 00 15 13 0F 1C 0F 02 15 13 00 00 00 00 00 80 30 37 00 DC 00 DA 00 FA 00 FA 00 00 00 00 00 0E 00 0E 00 DA 00 DC 00 DC 00 EB 00 FA 01 9E 00 FA 00 00 0F 02 0F 0B 0F 09 0F 0A 0F 08 0F 09 0F 0F 0F 0D 0F 0C 0F 0D 0F 14 0F 17 0F 1C 0F 11 00 |
14:47:38.450	RX: | 09 04 D8 F0 8A 00 02 40 00 80 04 25 23 00 00 01 00 07 52 16 6C 00 00 00 00 10 68 00 00 00 00 28 00 2C D8 2A 05 00 24 00 04 03 A9 00 71 00 00 00 00 00 00 15 13 0F 1C 0F 02 15 13 00 00 00 00 00 80 30 37 00 DC 00 DA 00 FA 00 FA 00 00 00 00 00 0E 00 0E 00 DA 00 DC 00 DC 00 EB 00 FA 01 9E 00 FA 00 00 0F 02 0F 0B 0F 09 0F 0A 0F 08 0F 09 0F 0F 0F 0D 0F 0C 0F 0D 0F 14 0F 17 0F 1C 0F 11 00 00 00 00 50 61 6E 61 73 6F 6E 69 63 00 00 00 00 00 00 00 42 4A 2D 44 43 42 30 36 42 2D 00 00 00 |
14:47:38.455	RX: | 09 04 D8 F0 8A 00 02 40 00 80 04 25 23 00 00 01 00 07 52 16 6C 00 00 00 00 10 68 00 00 00 00 28 00 2C D8 2A 05 00 24 00 04 03 A9 00 71 00 00 00 00 00 00 15 13 0F 1C 0F 02 15 13 00 00 00 00 00 80 30 37 00 DC 00 DA 00 FA 00 FA 00 00 00 00 00 0E 00 0E 00 DA 00 DC 00 DC 00 EB 00 FA 01 9E 00 FA 00 00 0F 02 0F 0B 0F 09 0F 0A 0F 08 0F 09 0F 0F 0F 0D 0F 0C 0F 0D 0F 14 0F 17 0F 1C 0F 11 00 00 00 00 50 61 6E 61 73 6F 6E 69 63 00 00 00 00 00 00 00 42 4A 2D 44 43 42 30 36 42 2D 00 00 00 00 00 00 2C 4E 00 04 00 00 01 11 00 10 07 12 06 02 00 24 32 32 30 32 31 34 41 53 44 34 30 30 34 |
14:47:38.461	RX: | 09 04 D8 F0 8A 00 02 40 00 80 04 25 23 00 00 01 00 07 52 16 6C 00 00 00 00 10 68 00 00 00 00 28 00 2C D8 2A 05 00 24 00 04 03 A9 00 71 00 00 00 00 00 00 15 13 0F 1C 0F 02 15 13 00 00 00 00 00 80 30 37 00 DC 00 DA 00 FA 00 FA 00 00 00 00 00 0E 00 0E 00 DA 00 DC 00 DC 00 EB 00 FA 01 9E 00 FA 00 00 0F 02 0F 0B 0F 09 0F 0A 0F 08 0F 09 0F 0F 0F 0D 0F 0C 0F 0D 0F 14 0F 17 0F 1C 0F 11 00 00 00 00 50 61 6E 61 73 6F 6E 69 63 00 00 00 00 00 00 00 42 4A 2D 44 43 42 30 36 42 2D 00 00 00 00 00 00 2C 4E 00 04 00 00 01 11 00 10 07 12 06 02 00 24 32 32 30 32 31 34 41 53 44 34 30 30 34 47 46 30 00 00 00 00 00 00 00 00 00 00 00 00 00 00 00 00 00 00 64 06 03 00 07 32 B9 D9 |
14:47:41.636	TX: | 09 04 14 00 00 6C F4 9F |
14:47:41.650	RX: | 09 04 D8 F0 8A 00 02 40 00 80 04 25 23 00 00 01 00 07 52 16 6C 00 00 00 00 10 68 00 00 00 00 28 |
14:47:41.655	RX: | 09 04 D8 F0 8A 00 02 40 00 80 04 25 23 00 00 01 00 07 52 16 6C 00 00 00 00 10 68 00 00 00 00 28 00 2C D8 2A 05 00 24 00 04 03 A9 00 71 00 00 00 00 00 00 15 13 0F 1C 0F 02 15 13 00 00 00 00 00 |
14:47:41.661	RX: | 09 04 D8 F0 8A 00 02 40 00 80 04 25 23 00 00 01 00 07 52 16 6C 00 00 00 00 10 68 00 00 00 00 28 00 2C D8 2A 05 00 24 00 04 03 A9 00 71 00 00 00 00 00 00 15 13 0F 1C 0F 02 15 13 00 00 00 00 00 80 30 37 00 DC 00 DA 00 FA 00 FA 00 00 00 00 00 0E 00 0E 00 DA 00 DC 00 DC 00 EB 00 FA 01 9E 00 |
14:47:41.666	RX: | 09 04 D8 F0 8A 00 02 40 00 80 04 25 23 00 00 01 00 07 52 16 6C 00 00 00 00 10 68 00 00 00 00 28 00 2C D8 2A 05 00 24 00 04 03 A9 00 71 00 00 00 00 00 00 15 13 0F 1C 0F 02 15 13 00 00 00 00 00 80 30 37 00 DC 00 DA 00 FA 00 FA 00 00 00 00 00 0E 00 0E 00 DA 00 DC 00 DC 00 EB 00 FA 01 9E 00 FA 00 00 0F 02 0F 0B 0F 08 0F 0A 0F 08 0F 0A 0F 0F 0F 0D 0F 0C 0F 0D 0F 14 0F 17 0F 1C 0F 12 00 |
14:47:41.673	RX: | 09 04 D8 F0 8A 00 02 40 00 80 04 25 23 00 00 01 00 07 52 16 6C 00 00 00 00 10 68 00 00 00 00 28 00 2C D8 2A 05 00 24 00 04 03 A9 00 71 00 00 00 00 00 00 15 13 0F 1C 0F 02 15 13 00 00 00 00 00 80 30 37 00 DC 00 DA 00 FA 00 FA 00 00 00 00 00 0E 00 0E 00 DA 00 DC 00 DC 00 EB 00 FA 01 9E 00 FA 00 00 0F 02 0F 0B 0F 08 0F 0A 0F 08 0F 0A 0F 0F 0F 0D 0F 0C 0F 0D 0F 14 0F 17 0F 1C 0F 12 00 00 00 00 50 61 6E 61 73 6F 6E 69 63 00 00 00 00 00 00 00 42 4A 2D 44 43 42 30 36 42 2D 00 00 00 |
14:47:41.678	RX: | 09 04 D8 F0 8A 00 02 40 00 80 04 25 23 00 00 01 00 07 52 16 6C 00 00 00 00 10 68 00 00 00 00 28 00 2C D8 2A 05 00 24 00 04 03 A9 00 71 00 00 00 00 00 00 15 13 0F 1C 0F 02 15 13 00 00 00 00 00 80 30 37 00 DC 00 DA 00 FA 00 FA 00 00 00 00 00 0E 00 0E 00 DA 00 DC 00 DC 00 EB 00 FA 01 9E 00 FA 00 00 0F 02 0F 0B 0F 08 0F 0A 0F 08 0F 0A 0F 0F 0F 0D 0F 0C 0F 0D 0F 14 0F 17 0F 1C 0F 12 00 00 00 00 50 61 6E 61 73 6F 6E 69 63 00 00 00 00 00 00 00 42 4A 2D 44 43 42 30 36 42 2D 00 00 00 00 00 00 2C 4E 00 04 00 00 01 11 00 10 07 12 06 02 00 24 32 32 30 32 31 34 41 53 44 34 30 30 34 |
14:47:41.684	RX: | 09 04 D8 F0 8A 00 02 40 00 80 04 25 23 00 00 01 00 07 52 16 6C 00 00 00 00 10 68 00 00 00 00 28 00 2C D8 2A 05 00 24 00 04 03 A9 00 71 00 00 00 00 00 00 15 13 0F 1C 0F 02 15 13 00 00 00 00 00 80 30 37 00 DC 00 DA 00 FA 00 FA 00 00 00 00 00 0E 00 0E 00 DA 00 DC 00 DC 00 EB 00 FA 01 9E 00 FA 00 00 0F 02 0F 0B 0F 08 0F 0A 0F 08 0F 0A 0F 0F 0F 0D 0F 0C 0F 0D 0F 14 0F 17 0F 1C 0F 12 00 00 00 00 50 61 6E 61 73 6F 6E 69 63 00 00 00 00 00 00 00 42 4A 2D 44 43 42 30 36 42 2D 00 00 00 00 00 00 2C 4E 00 04 00 00 01 11 00 10 07 12 06 02 00 24 32 32 30 32 31 34 41 53 44 34 30 30 34 47 46 30 00 00 00 00 00 00 00 00 00 00 00 00 00 00 00 00 00 00 64 06 03 00 07 35 4D 48 |
14:51:00.646	TX: | 00 01 00 00 00 06 09 04 14 00 00 6C |
14:51:03.649	TX: | 00 01 00 00 00 06 09 04 14 00 00 6C |
14:51:06.698	TX: | 00 01 00 00 00 06 09 04 14 00 00 6C |
14:51:08.557	RX: | 09 04 14 01 00 01 64 B2 |
14:51:08.560	RX: | B2 09 04 02 00 02 D9 30 |
14:51:11.572	TX: | 00 01 00 00 00 06 09 04 14 00 00 6C |
14:51:14.691	TX: | 00 01 00 00 00 06 09 04 14 00 00 6C |
14:51:15.486	RX: | 09 04 14 01 00 01 64 B2 |
14:51:15.491	RX: | B2 09 04 02 00 02 D9 30 |
14:51:18.506	TX: | 00 01 00 00 00 06 09 04 14 00 00 6C |
16:59:11.491	TX: | 00 01 00 00 00 06 01 03 00 6A 00 18 |
16:59:11.505	RX: | 00 01 00 00 00 33 01 03 30 00 00 40 40 00 00 41 C8 00 00 40 A0 00 00 41 C8 00 00 00 00 00 00 00 00 00 00 00 00 00 00 00 00 00 00 C2 C8 00 00 00 00 00 00 41 F0 00 00 41 F0 |
16:59:11.537	TX: | 00 01 00 00 00 06 01 03 00 5F 00 32 |
16:59:11.569	RX: | 00 01 00 00 00 67 01 03 64 00 00 42 48 00 00 40 A0 00 00 00 00 00 00 40 00 00 00 44 16 00 00 40 40 00 00 41 C8 00 00 40 A0 00 00 41 C8 00 00 00 00 00 00 00 00 00 00 00 00 00 00 00 00 00 00 C2 48 00 00 00 00 00 00 41 F0 00 00 41 F0 12 F2 44 0F 02 00 47 46 B7 CD 40 CF 00 00 00 00 84 6A 40 CB 44 25 40 A3 9E 1C 41 4D 00 00 00 00 |
16:59:12.544	TX: | 00 01 00 00 00 06 01 03 00 6A 00 18 |
16:59:12.557	RX: | 00 01 00 00 00 33 01 03 30 00 00 40 40 00 00 41 C8 00 00 40 A0 00 00 41 C8 00 00 00 00 00 00 00 00 00 00 00 00 00 00 00 00 00 00 C2 C8 00 00 00 00 00 00 41 F0 00 00 41 F0 |
16:59:12.622	TX: | 00 01 00 00 00 06 01 03 00 5F 00 32 |
16:59:12.627	RX: | 00 01 00 00 00 67 01 03 64 00 00 42 48 00 00 40 A0 00 00 00 00 00 00 40 00 00 00 44 16 00 00 40 40 00 00 41 C8 00 00 40 A0 00 00 41 C8 00 00 00 00 00 00 00 00 00 00 00 00 00 00 00 00 00 00 C2 48 00 00 00 00 00 00 41 F0 00 00 41 F0 C9 48 44 0E 03 00 47 46 A6 26 40 CF 00 00 00 00 8D 0F 40 CB 55 E8 40 A3 99 9B 41 4D 00 00 35 80 |
16:59:13.599	TX: | 00 01 00 00 00 06 01 03 00 6A 00 18 |
16:59:13.613	RX: | 00 01 00 00 00 33 01 03 30 00 00 40 40 00 00 41 C8 00 00 40 A0 00 00 41 C8 00 00 00 00 00 00 00 00 00 00 00 00 00 00 00 00 00 00 C2 C8 00 00 00 00 00 00 41 F0 00 00 41 F0 |
16:59:13.677	TX: | 00 01 00 00 00 06 01 03 00 5F 00 32 |
16:59:13.683	RX: | 00 01 00 00 00 67 01 03 64 00 00 42 48 00 00 40 A0 00 00 00 00 00 00 40 00 00 00 44 16 00 00 40 40 00 00 41 C8 00 00 40 A0 00 00 41 C8 00 00 00 00 00 00 00 00 00 00 00 00 00 00 00 00 00 00 C2 48 00 00 00 00 00 00 41 F0 00 00 41 F0 8A 0C 44 0E 04 00 47 46 BC 61 40 CF 00 00 00 00 72 BA 40 CB 42 E9 40 A3 97 8D 41 4D 00 00 B5 80 |
16:59:14.701	TX: | 00 01 00 00 00 06 01 03 00 5F 00 32 |
16:59:14.708	RX: | 00 01 00 00 00 67 01 03 64 00 00 42 48 00 00 40 A0 00 00 00 00 00 00 40 00 00 00 44 16 00 00 40 40 00 00 41 C8 00 00 40 A0 00 00 41 C8 00 00 00 00 00 00 00 00 00 00 00 00 00 00 00 00 00 00 C2 48 00 00 00 00 00 00 41 F0 00 00 41 F0 49 CB 44 0E 05 00 47 46 E6 E1 40 CF 00 00 00 00 64 E6 40 CB 3F 25 40 A3 A5 E4 41 4D 00 00 00 00 |
16:59:14.790	TX: | 00 01 00 00 00 06 01 03 00 6A 00 18 |
16:59:14.804	RX: | 00 01 00 00 00 33 01 03 30 00 00 40 40 00 00 41 C8 00 00 40 A0 00 00 41 C8 00 00 00 00 00 00 00 00 00 00 00 00 00 00 00 00 00 00 C2 C8 00 00 00 00 00 00 41 F0 00 00 41 F0 |
16:59:15.740	TX: | 00 01 00 00 00 06 01 03 00 5F 00 32 |
16:59:15.746	RX: | 00 01 00 00 00 67 01 03 64 00 00 42 48 00 00 40 A0 00 00 00 00 00 00 40 00 00 00 44 16 00 00 40 40 00 00 41 C8 00 00 40 A0 00 00 41 C8 00 00 00 00 00 00 00 00 00 00 00 00 00 00 00 00 00 00 C2 48 00 00 00 00 00 00 41 F0 00 00 41 F0 00 F6 44 0E 07 00 47 46 62 A5 40 D0 00 00 00 00 4D E6 40 CB 3F 25 40 A3 D8 45 41 4D 00 00 B5 80 |
16:59:15.845	TX: | 00 01 00 00 00 06 01 03 00 6A 00 18 |
16:59:15.864	RX: | 00 01 00 00 00 33 01 03 30 00 00 40 40 00 00 41 C8 00 00 40 A0 00 00 41 C8 00 00 00 00 00 00 00 00 00 00 00 00 00 00 00 00 00 00 C2 C8 00 00 00 00 00 00 41 F0 00 00 41 F0 |
16:59:16.791	TX: | 00 01 00 00 00 06 01 03 00 5F 00 32 |
16:59:16.797	RX: | 00 01 00 00 00 67 01 03 64 00 00 42 48 00 00 40 A0 00 00 00 00 00 00 40 00 00 00 44 16 00 00 40 40 00 00 41 C8 00 00 40 A0 00 00 41 C8 00 00 00 00 00 00 00 00 00 00 00 00 00 00 00 00 00 00 C2 48 00 00 00 00 00 00 41 F0 00 00 41 F0 C1 BA 44 0D 08 00 47 46 90 E7 40 D0 00 00 00 00 46 F2 40 CB 42 11 40 A3 EB ED 41 4D 00 00 35 80 |
16:59:16.916	TX: | 00 01 00 00 00 06 01 03 00 6A 00 18 |
16:59:16.930	RX: | 00 01 00 00 00 33 01 03 30 00 00 40 40 00 00 41 C8 00 00 40 A0 00 00 41 C8 00 00 00 00 00 00 00 00 00 00 00 00 00 00 00 00 00 00 C2 C8 00 00 00 00 00 00 41 F0 00 00 41 F0 |
16:59:17.831	TX: | 00 01 00 00 00 06 01 03 00 5F 00 32 |
16:59:17.837	RX: | 00 01 00 00 00 67 01 03 64 00 00 42 48 00 00 40 A0 00 00 00 00 00 00 40 00 00 00 44 16 00 00 40 40 00 00 41 C8 00 00 40 A0 00 00 41 C8 00 00 00 00 00 00 00 00 00 00 00 00 00 00 00 00 00 00 C2 48 00 00 00 00 00 00 41 F0 00 00 41 F0 79 37 44 0D 09 00 47 46 F2 C3 40 D0 00 00 00 00 40 06 40 CB 46 C9 40 A3 19 64 41 4E 00 00 00 00 |
17:19:33.787	TX: | 00 01 00 00 00 06 01 03 00 5F 00 32 |
17:19:33.793	RX: | 00 01 00 00 00 67 01 03 64 00 00 42 48 00 00 40 A0 00 00 00 00 00 00 40 00 00 00 44 16 00 00 40 40 00 00 41 C8 00 00 40 A0 00 00 41 C8 00 00 00 00 00 00 00 00 00 00 00 00 00 00 00 00 00 00 C2 48 00 00 00 00 00 00 41 F0 00 00 41 F0 00 00 44 16 55 00 47 46 F0 D8 41 42 00 00 00 00 00 00 00 00 00 00 00 00 F0 D8 41 42 00 00 00 00 |
17:19:33.861	TX: | 00 01 00 00 00 06 01 03 00 6A 00 18 |
17:19:33.875	RX: | 00 01 00 00 00 33 01 03 30 00 00 40 40 00 00 41 C8 00 00 40 A0 00 00 41 C8 00 00 00 00 00 00 00 00 00 00 00 00 00 00 00 00 00 00 C2 C8 00 00 00 00 00 00 41 F0 00 00 41 F0 |
17:19:34.816	TX: | 00 01 00 00 00 06 01 03 00 5F 00 32 |
17:19:34.825	RX: | 00 01 00 00 00 67 01 03 64 00 00 42 48 00 00 40 A0 00 00 00 00 00 00 40 00 00 00 44 16 00 00 40 40 00 00 41 C8 00 00 40 A0 00 00 41 C8 00 00 00 00 00 00 00 00 00 00 00 00 00 00 00 00 00 00 C2 48 00 00 00 00 00 00 41 F0 00 00 41 F0 00 00 44 16 55 00 47 46 F2 14 41 42 00 00 00 00 00 00 00 00 00 00 00 00 F2 14 41 42 00 00 00 00 |
18:08:49.487	TX: | 00 01 00 00 00 06 01 03 00 5F 00 32 |
18:08:49.500	RX: | 00 01 00 00 00 67 01 03 64 00 00 42 48 00 00 40 A0 00 00 00 00 00 00 40 00 00 00 44 16 00 00 40 40 00 00 41 C8 00 00 40 A0 00 00 41 C8 00 00 00 00 00 00 00 00 00 00 00 00 00 00 00 00 00 00 C2 48 00 00 00 00 00 00 41 F0 00 00 41 F0 00 00 44 16 55 00 47 46 93 74 41 4A 00 00 00 00 00 00 00 00 00 00 00 00 93 74 41 4A 00 00 00 00 |
18:08:49.569	TX: | 00 01 00 00 00 06 01 03 00 6A 00 18 |
18:08:49.581	RX: | 00 01 00 00 00 33 01 03 30 00 00 40 40 00 00 41 C8 00 00 40 A0 00 00 41 C8 00 00 00 00 00 00 00 00 00 00 00 00 00 00 00 00 00 00 C2 C8 00 00 00 00 00 00 41 F0 00 00 41 F0 |
18:08:50.533	TX: | 00 01 00 00 00 06 01 03 00 5F 00 32 |
18:08:50.539	RX: | 00 01 00 00 00 67 01 03 64 00 00 42 48 00 00 40 A0 00 00 00 00 00 00 40 00 00 00 44 16 00 00 40 40 00 00 41 C8 00 00 40 A0 00 00 41 C8 00 00 00 00 00 00 00 00 00 00 00 00 00 00 00 00 00 00 C2 48 00 00 00 00 00 00 41 F0 00 00 41 F0 00 00 44 16 55 00 47 46 98 C8 41 4A 00 00 00 00 00 00 00 00 00 00 00 00 98 C8 41 4A 00 00 00 00 |
18:08:50.658	TX: | 00 01 00 00 00 06 01 03 00 6A 00 18 |
18:08:50.672	RX: | 00 01 00 00 00 33 01 03 30 00 00 40 40 00 00 41 C8 00 00 40 A0 00 00 41 C8 00 00 00 00 00 00 00 00 00 00 00 00 00 00 00 00 00 00 C2 C8 00 00 00 00 00 00 41 F0 00 00 41 F0 |
18:08:51.571	TX: | 00 01 00 00 00 06 01 03 00 5F 00 32 |
18:08:51.577	RX: | 00 01 00 00 00 67 01 03 64 00 00 42 48 00 00 40 A0 00 00 00 00 00 00 40 00 00 00 44 16 00 00 40 40 00 00 41 C8 00 00 40 A0 00 00 41 C8 00 00 00 00 00 00 00 00 00 00 00 00 00 00 00 00 00 00 C2 48 00 00 00 00 00 00 41 F0 00 00 41 F0 00 00 44 16 55 00 47 46 A8 C2 41 4A 00 00 00 00 00 00 00 00 00 00 00 00 A8 C2 41 4A 00 00 00 00 |
18:08:51.712	TX: | 00 01 00 00 00 06 01 03 00 6A 00 18 |
18:08:51.724	RX: | 00 01 00 00 00 33 01 03 30 00 00 40 40 00 00 41 C8 00 00 40 A0 00 00 41 C8 00 00 00 00 00 00 00 00 00 00 00 00 00 00 00 00 00 00 C2 C8 00 00 00 00 00 00 41 F0 00 00 41 F0 |
18:08:52.597	TX: | 00 01 00 00 00 06 01 03 00 5F 00 32 |
18:08:52.603	RX: | 00 01 00 00 00 67 01 03 64 00 00 42 48 00 00 40 A0 00 00 00 00 00 00 40 00 00 00 44 16 00 00 40 40 00 00 41 C8 00 00 40 A0 00 00 41 C8 00 00 00 00 00 00 00 00 00 00 00 00 00 00 00 00 00 00 C2 48 00 00 00 00 00 00 41 F0 00 00 41 F0 00 00 44 16 55 00 47 46 B0 F3 41 4A 00 00 00 00 00 00 00 00 00 00 00 00 B0 F3 41 4A 00 00 00 00 |
18:08:52.751	TX: | 00 01 00 00 00 06 01 03 00 6A 00 18 |
18:08:52.767	RX: | 00 01 00 00 00 33 01 03 30 00 00 40 40 00 00 41 C8 00 00 40 A0 00 00 41 C8 00 00 00 00 00 00 00 00 00 00 00 00 00 00 00 00 00 00 C2 C8 00 00 00 00 00 00 41 F0 00 00 41 F0 |
18:08:53.621	TX: | 00 01 00 00 00 06 01 03 00 5F 00 32 |
18:08:53.627	RX: | 00 01 00 00 00 67 01 03 64 00 00 42 48 00 00 40 A0 00 00 00 00 00 00 40 00 00 00 44 16 00 00 40 40 00 00 41 C8 00 00 40 A0 00 00 41 C8 00 00 00 00 00 00 00 00 00 00 00 00 00 00 00 00 00 00 C2 48 00 00 00 00 00 00 41 F0 00 00 41 F0 00 00 44 16 55 00 47 46 A6 B6 41 4A 00 00 00 00 00 00 00 00 00 00 00 00 A6 B6 41 4A 00 00 00 00 |
18:08:53.808	TX: | 00 01 00 00 00 06 01 03 00 6A 00 18 |
18:08:53.821	RX: | 00 01 00 00 00 33 01 03 30 00 00 40 40 00 00 41 C8 00 00 40 A0 00 00 41 C8 00 00 00 00 00 00 00 00 00 00 00 00 00 00 00 00 00 00 C2 C8 00 00 00 00 00 00 41 F0 00 00 41 F0 |
18:08:54.660	TX: | 00 01 00 00 00 06 01 03 00 5F 00 32 |
18:08:54.665	RX: | 00 01 00 00 00 67 01 03 64 00 00 42 48 00 00 40 A0 00 00 00 00 00 00 40 00 00 00 44 16 00 00 40 40 00 00 41 C8 00 00 40 A0 00 00 41 C8 00 00 00 00 00 00 00 00 00 00 00 00 00 00 00 00 00 00 C2 48 00 00 00 00 00 00 41 F0 00 00 41 F0 00 00 44 16 55 00 47 46 AC 08 41 4A 00 00 00 00 00 00 00 00 00 00 00 00 AC 08 41 4A 00 00 00 00 |
18:08:54.862	TX: | 00 01 00 00 00 06 01 03 00 6A 00 18 |
18:08:54.875	RX: | 00 01 00 00 00 33 01 03 30 00 00 40 40 00 00 41 C8 00 00 40 A0 00 00 41 C8 00 00 00 00 00 00 00 00 00 00 00 00 00 00 00 00 00 00 C2 C8 00 00 00 00 00 00 41 F0 00 00 41 F0 |
18:08:55.673	TX: | 00 01 00 00 00 06 01 03 00 5F 00 32 |
18:08:55.679	RX: | 00 01 00 00 00 67 01 03 64 00 00 42 48 00 00 40 A0 00 00 00 00 00 00 40 00 00 00 44 16 00 00 40 40 00 00 41 C8 00 00 40 A0 00 00 41 C8 00 00 00 00 00 00 00 00 00 00 00 00 00 00 00 00 00 00 C2 48 00 00 00 00 00 00 41 F0 00 00 41 F0 00 00 44 16 55 00 47 46 AE E6 41 4A 00 00 00 00 00 00 00 00 00 00 00 00 AE E6 41 4A 00 00 00 00 |
18:08:55.915	TX: | 00 01 00 00 00 06 01 03 00 6A 00 18 |
18:08:55.928	RX: | 00 01 00 00 00 33 01 03 30 00 00 40 40 00 00 41 C8 00 00 40 A0 00 00 41 C8 00 00 00 00 00 00 00 00 00 00 00 00 00 00 00 00 00 00 C2 C8 00 00 00 00 00 00 41 F0 00 00 41 F0 |
18:08:56.699	TX: | 00 01 00 00 00 06 01 03 00 5F 00 32 |
18:08:56.708	RX: | 00 01 00 00 00 67 01 03 64 00 00 42 48 00 00 40 A0 00 00 00 00 00 00 40 00 00 00 44 16 00 00 40 40 00 00 41 C8 00 00 40 A0 00 00 41 C8 00 00 00 00 00 00 00 00 00 00 00 00 00 00 00 00 00 00 C2 48 00 00 00 00 00 00 41 F0 00 00 41 F0 00 00 44 16 55 00 47 46 C7 7A 41 4A 00 00 00 00 00 00 00 00 00 00 00 00 C7 7A 41 4A 00 00 00 00 |
18:08:56.956	TX: | 00 01 00 00 00 06 01 03 00 6A 00 18 |
18:08:56.976	RX: | 00 01 00 00 00 33 01 03 30 00 00 40 40 00 00 41 C8 00 00 40 A0 00 00 41 C8 00 00 00 00 00 00 00 00 00 00 00 00 00 00 00 00 00 00 C2 C8 00 00 00 00 00 00 41 F0 00 00 41 F0 |
18:08:57.731	TX: | 00 01 00 00 00 06 01 03 00 5F 00 32 |
18:08:57.737	RX: | 00 01 00 00 00 67 01 03 64 00 00 42 48 00 00 40 A0 00 00 00 00 00 00 40 00 00 00 44 16 00 00 40 40 00 00 41 C8 00 00 40 A0 00 00 41 C8 00 00 00 00 00 00 00 00 00 00 00 00 00 00 00 00 00 00 C2 48 00 00 00 00 00 00 41 F0 00 00 41 F0 00 00 44 16 55 00 47 46 D2 89 41 4A 00 00 00 00 00 00 00 00 00 00 00 00 D2 89 41 4A 00 00 00 00 |
18:08:58.010	TX: | 00 01 00 00 00 06 01 03 00 6A 00 18 |
18:08:58.024	RX: | 00 01 00 00 00 33 01 03 30 00 00 40 40 00 00 41 C8 00 00 40 A0 00 00 41 C8 00 00 00 00 00 00 00 00 00 00 00 00 00 00 00 00 00 00 C2 C8 00 00 00 00 00 00 41 F0 00 00 41 F0 |
18:08:58.743	TX: | 00 01 00 00 00 06 01 03 00 5F 00 32 |
18:08:58.761	RX: | 00 01 00 00 00 67 01 03 64 00 00 42 48 00 00 40 A0 00 00 00 00 00 00 40 00 00 00 44 16 00 00 40 40 00 00 41 C8 00 00 40 A0 00 00 41 C8 00 00 00 00 00 00 00 00 00 00 00 00 00 00 00 00 00 00 C2 48 00 00 00 00 00 00 41 F0 00 00 41 F0 00 00 44 16 55 00 47 46 E1 B1 41 4A 00 00 00 00 00 00 00 00 00 00 00 00 E1 B1 41 4A 00 00 00 00 |
18:08:59.066	TX: | 00 01 00 00 00 06 01 03 00 6A 00 18 |
18:08:59.080	RX: | 00 01 00 00 00 33 01 03 30 00 00 40 40 00 00 41 C8 00 00 40 A0 00 00 41 C8 00 00 00 00 00 00 00 00 00 00 00 00 00 00 00 00 00 00 C2 C8 00 00 00 00 00 00 41 F0 00 00 41 F0 |
18:09:27.739	TX: | 00 01 00 00 00 06 01 03 00 6A 00 18 |
18:09:27.740	TX: | 00 01 00 00 00 06 01 03 00 5F 00 32 |
18:09:27.745	RX: | 00 01 00 00 00 67 01 03 64 00 00 42 48 00 00 40 A0 00 00 00 00 00 00 40 00 00 00 44 16 00 00 40 40 00 00 41 C8 00 00 40 A0 00 00 41 C8 00 00 00 00 00 00 00 00 00 00 00 00 00 00 00 00 00 00 C2 48 00 00 00 00 00 00 41 F0 00 00 41 F0 00 00 44 16 55 00 47 46 2F 1A 41 4B 00 00 00 00 00 00 00 00 00 00 00 00 2F 1A 41 4B 00 00 00 00 |
18:09:27.770	RX: | 00 01 00 00 00 33 01 03 30 00 00 40 40 00 00 41 C8 00 00 40 A0 00 00 41 C8 00 00 00 00 00 00 00 00 00 00 00 00 00 00 00 00 00 00 C2 C8 00 00 00 00 00 00 41 F0 00 00 41 F0 |
18:09:28.780	TX: | 00 01 00 00 00 06 01 03 00 5F 00 32 |
18:09:28.786	RX: | 00 01 00 00 00 67 01 03 64 00 00 42 48 00 00 40 A0 00 00 00 00 00 00 40 00 00 00 44 16 00 00 40 40 00 00 41 C8 00 00 40 A0 00 00 41 C8 00 00 00 00 00 00 00 00 00 00 00 00 00 00 00 00 00 00 C2 48 00 00 00 00 00 00 41 F0 00 00 41 F0 00 00 44 16 55 00 47 46 2A 98 41 4B 00 00 00 00 00 00 00 00 00 00 00 00 2A 98 41 4B 00 00 00 00 |
18:09:28.884	TX: | 00 01 00 00 00 06 01 03 00 6A 00 18 |
18:09:28.898	RX: | 00 01 00 00 00 33 01 03 30 00 00 40 40 00 00 41 C8 00 00 40 A0 00 00 41 C8 00 00 00 00 00 00 00 00 00 00 00 00 00 00 00 00 00 00 C2 C8 00 00 00 00 00 00 41 F0 00 00 41 F0 |
18:09:37.314	TX: | 00 01 00 00 00 06 01 03 00 5F 00 32 |
18:09:37.322	TX: | 00 01 00 00 00 06 01 03 00 6A 00 18 |
18:09:37.325	RX: | 00 01 00 00 00 67 01 03 64 00 00 42 48 00 00 40 A0 00 00 00 00 00 00 40 00 00 00 44 16 00 00 40 40 00 00 41 C8 00 00 40 A0 00 00 41 C8 00 00 00 00 00 00 00 00 00 00 00 00 00 00 00 00 00 00 C2 48 00 00 00 00 00 00 41 F0 00 00 41 F0 00 00 44 16 55 00 47 46 B9 8D 41 4A 00 00 00 00 00 00 00 00 00 00 00 00 B9 8D 41 4A 00 00 00 00 |
18:09:37.356	RX: | 00 01 00 00 00 33 01 03 30 00 00 40 40 00 00 41 C8 00 00 40 A0 00 00 41 C8 00 00 00 00 00 00 00 00 00 00 00 00 00 00 00 00 00 00 C2 C8 00 00 00 00 00 00 41 F0 00 00 41 F0 |
18:09:38.337	TX: | 00 01 00 00 00 06 01 03 00 5F 00 32 |
18:09:38.342	RX: | 00 01 00 00 00 67 01 03 64 00 00 42 48 00 00 40 A0 00 00 00 00 00 00 40 00 00 00 44 16 00 00 40 40 00 00 41 C8 00 00 40 A0 00 00 41 C8 00 00 00 00 00 00 00 00 00 00 00 00 00 00 00 00 00 00 C2 48 00 00 00 00 00 00 41 F0 00 00 41 F0 00 00 44 16 55 00 47 46 B1 C4 41 4A 00 00 00 00 00 00 00 00 00 00 00 00 B1 C4 41 4A 00 00 00 00 |
18:09:38.456	TX: | 00 01 00 00 00 06 01 03 00 6A 00 18 |
18:09:38.469	RX: | 00 01 00 00 00 33 01 03 30 00 00 40 40 00 00 41 C8 00 00 40 A0 00 00 41 C8 00 00 00 00 00 00 00 00 00 00 00 00 00 00 00 00 00 00 C2 C8 00 00 00 00 00 00 41 F0 00 00 41 F0 |
18:11:12.146	TX: | 00 01 00 00 00 06 01 03 00 5F 00 32 |
18:11:12.151	RX: | 00 01 00 00 00 67 01 03 64 00 00 42 48 00 00 40 A0 00 00 00 00 00 00 40 00 00 00 44 16 00 00 40 40 00 00 41 C8 00 00 40 A0 00 00 41 C8 00 00 00 00 00 00 00 00 00 00 00 00 00 00 00 00 00 00 C2 48 00 00 00 00 00 00 41 F0 00 00 41 F0 00 00 44 16 55 00 47 46 6E 98 41 45 00 00 00 00 00 00 00 00 00 00 00 00 6E 98 41 45 00 00 00 00 |
18:11:12.221	TX: | 00 01 00 00 00 06 01 03 00 6A 00 18 |
18:11:12.239	RX: | 00 01 00 00 00 33 01 03 30 00 00 40 40 00 00 41 C8 00 00 40 A0 00 00 41 C8 00 00 00 00 00 00 00 00 00 00 00 00 00 00 00 00 00 00 C2 C8 00 00 00 00 00 00 41 F0 00 00 41 F0 |
18:11:13.161	TX: | 00 01 00 00 00 06 01 03 00 5F 00 32 |
18:11:13.172	RX: | 00 01 00 00 00 67 01 03 64 00 00 42 48 00 00 40 A0 00 00 00 00 00 00 40 00 00 00 44 16 00 00 40 40 00 00 41 C8 00 00 40 A0 00 00 41 C8 00 00 00 00 00 00 00 00 00 00 00 00 00 00 00 00 00 00 C2 48 00 00 00 00 00 00 41 F0 00 00 41 F0 00 00 44 16 55 00 47 46 69 AC 41 45 00 00 00 00 00 00 00 00 00 00 00 00 69 AC 41 45 00 00 00 00 |
18:11:24.636	TX: | 00 01 00 00 00 06 01 03 00 5F 00 32 |
18:11:24.642	RX: | 00 01 00 00 00 67 01 03 64 00 00 42 48 00 00 40 A0 00 00 00 00 00 00 40 00 00 00 44 16 00 00 40 40 00 00 41 C8 00 00 40 A0 00 00 41 C8 00 00 00 00 00 00 00 00 00 00 00 00 00 00 00 00 00 00 C2 48 00 00 00 00 00 00 41 F0 00 00 41 F0 00 00 44 16 55 00 47 46 23 3A 41 45 00 00 00 00 00 00 00 00 00 00 00 00 23 3A 41 45 00 00 00 00 |
18:11:24.725	TX: | 00 01 00 00 00 06 01 03 00 6A 00 18 |
18:11:24.739	RX: | 00 01 00 00 00 33 01 03 30 00 00 40 40 00 00 41 C8 00 00 40 A0 00 00 41 C8 00 00 00 00 00 00 00 00 00 00 00 00 00 00 00 00 00 00 C2 C8 00 00 00 00 00 00 41 F0 00 00 41 F0 |
18:11:25.677	TX: | 00 01 00 00 00 06 01 03 00 5F 00 32 |
18:11:25.683	RX: | 00 01 00 00 00 67 01 03 64 00 00 42 48 00 00 40 A0 00 00 00 00 00 00 40 00 00 00 44 16 00 00 40 40 00 00 41 C8 00 00 40 A0 00 00 41 C8 00 00 00 00 00 00 00 00 00 00 00 00 00 00 00 00 00 00 C2 48 00 00 00 00 00 00 41 F0 00 00 41 F0 00 00 44 16 55 00 47 46 2D E1 41 45 00 00 00 00 00 00 00 00 00 00 00 00 2D E1 41 45 00 00 00 00 |
18:11:25.802	TX: | 00 01 00 00 00 06 01 03 00 6A 00 18 |
18:11:25.815	RX: | 00 01 00 00 00 33 01 03 30 00 00 40 40 00 00 41 C8 00 00 40 A0 00 00 41 C8 00 00 00 00 00 00 00 00 00 00 00 00 00 00 00 00 00 00 C2 C8 00 00 00 00 00 00 41 F0 00 00 41 F0 |
18:11:26.703	TX: | 00 01 00 00 00 06 01 03 00 5F 00 32 |
18:11:26.713	RX: | 00 01 00 00 00 67 01 03 64 00 00 42 48 00 00 40 A0 00 00 00 00 00 00 40 00 00 00 44 16 00 00 40 40 00 00 41 C8 00 00 40 A0 00 00 41 C8 00 00 00 00 00 00 00 00 00 00 00 00 00 00 00 00 00 00 C2 48 00 00 00 00 00 00 41 F0 00 00 41 F0 00 00 44 16 55 00 47 46 31 26 41 45 00 00 00 00 00 00 00 00 00 00 00 00 31 26 41 45 00 00 00 00 |
18:11:26.852	TX: | 00 01 00 00 00 06 01 03 00 6A 00 18 |
18:11:26.866	RX: | 00 01 00 00 00 33 01 03 30 00 00 40 40 00 00 41 C8 00 00 40 A0 00 00 41 C8 00 00 00 00 00 00 00 00 00 00 00 00 00 00 00 00 00 00 C2 C8 00 00 00 00 00 00 41 F0 00 00 41 F0 |
18:11:27.725	TX: | 00 01 00 00 00 06 01 03 00 5F 00 32 |
18:11:27.730	RX: | 00 01 00 00 00 67 01 03 64 00 00 42 48 00 00 40 A0 00 00 00 00 00 00 40 00 00 00 44 16 00 00 40 40 00 00 41 C8 00 00 40 A0 00 00 41 C8 00 00 00 00 00 00 00 00 00 00 00 00 00 00 00 00 00 00 C2 48 00 00 00 00 00 00 41 F0 00 00 41 F0 00 00 44 16 55 00 47 46 38 1E 41 45 00 00 00 00 00 00 00 00 00 00 00 00 38 1E 41 45 00 00 00 00 |
18:11:27.906	TX: | 00 01 00 00 00 06 01 03 00 6A 00 18 |
18:11:27.920	RX: | 00 01 00 00 00 33 01 03 30 00 00 40 40 00 00 41 C8 00 00 40 A0 00 00 41 C8 00 00 00 00 00 00 00 00 00 00 00 00 00 00 00 00 00 00 C2 C8 00 00 00 00 00 00 41 F0 00 00 41 F0 |
18:11:28.771	TX: | 00 01 00 00 00 06 01 03 00 5F 00 32 |
18:11:28.777	RX: | 00 01 00 00 00 67 01 03 64 00 00 42 48 00 00 40 A0 00 00 00 00 00 00 40 00 00 00 44 16 00 00 40 40 00 00 41 C8 00 00 40 A0 00 00 41 C8 00 00 00 00 00 00 00 00 00 00 00 00 00 00 00 00 00 00 C2 48 00 00 00 00 00 00 41 F0 00 00 41 F0 00 00 44 16 55 00 47 46 3B CE 41 45 00 00 00 00 00 00 00 00 00 00 00 00 3B CE 41 45 00 00 00 00 |
18:11:28.959	TX: | 00 01 00 00 00 06 01 03 00 6A 00 18 |
18:11:28.972	RX: | 00 01 00 00 00 33 01 03 30 00 00 40 40 00 00 41 C8 00 00 40 A0 00 00 41 C8 00 00 00 00 00 00 00 00 00 00 00 00 00 00 00 00 00 00 C2 C8 00 00 00 00 00 00 41 F0 00 00 41 F0 |
18:11:29.814	TX: | 00 01 00 00 00 06 01 03 00 5F 00 32 |
18:11:29.820	RX: | 00 01 00 00 00 67 01 03 64 00 00 42 48 00 00 40 A0 00 00 00 00 00 00 40 00 00 00 44 16 00 00 40 40 00 00 41 C8 00 00 40 A0 00 00 41 C8 00 00 00 00 00 00 00 00 00 00 00 00 00 00 00 00 00 00 C2 48 00 00 00 00 00 00 41 F0 00 00 41 F0 00 00 44 16 55 00 47 46 3A FC 41 45 00 00 00 00 00 00 00 00 00 00 00 00 3A FC 41 45 00 00 00 00 |
18:11:30.015	TX: | 00 01 00 00 00 06 01 03 00 6A 00 18 |
18:11:30.029	RX: | 00 01 00 00 00 33 01 03 30 00 00 40 40 00 00 41 C8 00 00 40 A0 00 00 41 C8 00 00 00 00 00 00 00 00 00 00 00 00 00 00 00 00 00 00 C2 C8 00 00 00 00 00 00 41 F0 00 00 41 F0 |
18:11:30.841	TX: | 00 01 00 00 00 06 01 03 00 5F 00 32 |
18:11:30.847	RX: | 00 01 00 00 00 67 01 03 64 00 00 42 48 00 00 40 A0 00 00 00 00 00 00 40 00 00 00 44 16 00 00 40 40 00 00 41 C8 00 00 40 A0 00 00 41 C8 00 00 00 00 00 00 00 00 00 00 00 00 00 00 00 00 00 00 C2 48 00 00 00 00 00 00 41 F0 00 00 41 F0 00 00 44 16 55 00 47 46 41 21 41 45 00 00 00 00 00 00 00 00 00 00 00 00 41 21 41 45 00 00 00 00 |
18:11:31.056	TX: | 00 01 00 00 00 06 01 03 00 6A 00 18 |
18:11:31.070	RX: | 00 01 00 00 00 33 01 03 30 00 00 40 40 00 00 41 C8 00 00 40 A0 00 00 41 C8 00 00 00 00 00 00 00 00 00 00 00 00 00 00 00 00 00 00 C2 C8 00 00 00 00 00 00 41 F0 00 00 41 F0 |
18:11:31.881	TX: | 00 01 00 00 00 06 01 03 00 5F 00 32 |
18:11:31.887	RX: | 00 01 00 00 00 67 01 03 64 00 00 42 48 00 00 40 A0 00 00 00 00 00 00 40 00 00 00 44 16 00 00 40 40 00 00 41 C8 00 00 40 A0 00 00 41 C8 00 00 00 00 00 00 00 00 00 00 00 00 00 00 00 00 00 00 C2 48 00 00 00 00 00 00 41 F0 00 00 41 F0 00 00 44 16 55 00 47 46 44 D0 41 45 00 00 00 00 00 00 00 00 00 00 00 00 44 D0 41 45 00 00 00 00 |
18:11:32.115	TX: | 00 01 00 00 00 06 01 03 00 6A 00 18 |
18:11:32.128	RX: | 00 01 00 00 00 33 01 03 30 00 00 40 40 00 00 41 C8 00 00 40 A0 00 00 41 C8 00 00 00 00 00 00 00 00 00 00 00 00 00 00 00 00 00 00 C2 C8 00 00 00 00 00 00 41 F0 00 00 41 F0 |
18:11:32.933	TX: | 00 01 00 00 00 06 01 03 00 5F 00 32 |
18:11:32.939	RX: | 00 01 00 00 00 67 01 03 64 00 00 42 48 00 00 40 A0 00 00 00 00 00 00 40 00 00 00 44 16 00 00 40 40 00 00 41 C8 00 00 40 A0 00 00 41 C8 00 00 00 00 00 00 00 00 00 00 00 00 00 00 00 00 00 00 C2 48 00 00 00 00 00 00 41 F0 00 00 41 F0 00 00 44 16 55 00 47 46 3F 14 41 45 00 00 00 00 00 00 00 00 00 00 00 00 3F 14 41 45 A0 00 BB 09 |
18:11:33.149	TX: | 00 01 00 00 00 06 01 03 00 6A 00 18 |
18:11:33.162	RX: | 00 01 00 00 00 33 01 03 30 00 00 40 40 00 00 41 C8 00 00 40 A0 00 00 41 C8 00 00 00 00 00 00 00 00 00 00 00 00 00 00 00 00 00 00 C2 C8 00 00 00 00 00 00 41 F0 00 00 41 F0 |
18:11:33.957	TX: | 00 01 00 00 00 06 01 03 00 5F 00 32 |
18:11:33.963	RX: | 00 01 00 00 00 67 01 03 64 00 00 42 48 00 00 40 A0 00 00 00 00 00 00 40 00 00 00 44 16 00 00 40 40 00 00 41 C8 00 00 40 A0 00 00 41 C8 00 00 00 00 00 00 00 00 00 00 00 00 00 00 00 00 00 00 C2 48 00 00 00 00 00 00 41 F0 00 00 41 F0 00 00 44 16 55 00 47 46 3F 14 41 45 00 00 00 00 00 00 00 00 00 00 00 00 3F 14 41 45 00 00 00 00 |
18:11:34.208	TX: | 00 01 00 00 00 06 01 03 00 6A 00 18 |
18:11:34.221	RX: | 00 01 00 00 00 33 01 03 30 00 00 40 40 00 00 41 C8 00 00 40 A0 00 00 41 C8 00 00 00 00 00 00 00 00 00 00 00 00 00 00 00 00 00 00 C2 C8 00 00 00 00 00 00 41 F0 00 00 41 F0 |
18:11:34.999	TX: | 00 01 00 00 00 06 01 03 00 5F 00 32 |
18:11:35.005	RX: | 00 01 00 00 00 67 01 03 64 00 00 42 48 00 00 40 A0 00 00 00 00 00 00 40 00 00 00 44 16 00 00 40 40 00 00 41 C8 00 00 40 A0 00 00 41 C8 00 00 00 00 00 00 00 00 00 00 00 00 00 00 00 00 00 00 C2 48 00 00 00 00 00 00 41 F0 00 00 41 F0 00 00 44 16 55 00 47 46 28 F6 41 45 00 00 00 00 00 00 00 00 00 00 00 00 28 F6 41 45 00 00 00 00 |
18:11:35.262	TX: | 00 01 00 00 00 06 01 03 00 6A 00 18 |
18:11:35.274	RX: | 00 01 00 00 00 33 01 03 30 00 00 40 40 00 00 41 C8 00 00 40 A0 00 00 41 C8 00 00 00 00 00 00 00 00 00 00 00 00 00 00 00 00 00 00 C2 C8 00 00 00 00 00 00 41 F0 00 00 41 F0 |
18:11:36.039	TX: | 00 01 00 00 00 06 01 03 00 5F 00 32 |
18:11:36.044	RX: | 00 01 00 00 00 67 01 03 64 00 00 42 48 00 00 40 A0 00 00 00 00 00 00 40 00 00 00 44 16 00 00 40 40 00 00 41 C8 00 00 40 A0 00 00 41 C8 00 00 00 00 00 00 00 00 00 00 00 00 00 00 00 00 00 00 C2 48 00 00 00 00 00 00 41 F0 00 00 41 F0 00 00 44 16 55 00 47 46 2E B2 41 45 00 00 00 00 00 00 00 00 00 00 00 00 2E B2 41 45 00 00 00 00 |
18:11:36.318	TX: | 00 01 00 00 00 06 01 03 00 6A 00 18 |
18:11:36.333	RX: | 00 01 00 00 00 33 01 03 30 00 00 40 40 00 00 41 C8 00 00 40 A0 00 00 41 C8 00 00 00 00 00 00 00 00 00 00 00 00 00 00 00 00 00 00 C2 C8 00 00 00 00 00 00 41 F0 00 00 41 F0 |
18:11:37.078	TX: | 00 01 00 00 00 06 01 03 00 5F 00 32 |
18:11:37.084	RX: | 00 01 00 00 00 67 01 03 64 00 00 42 48 00 00 40 A0 00 00 00 00 00 00 40 00 00 00 44 16 00 00 40 40 00 00 41 C8 00 00 40 A0 00 00 41 C8 00 00 00 00 00 00 00 00 00 00 00 00 00 00 00 00 00 00 C2 48 00 00 00 00 00 00 41 F0 00 00 41 F0 00 00 44 16 55 00 47 46 34 06 41 45 00 00 00 00 00 00 00 00 00 00 00 00 34 06 41 45 00 00 00 00 |
18:11:37.357	TX: | 00 01 00 00 00 06 01 03 00 6A 00 18 |
18:11:37.374	RX: | 00 01 00 00 00 33 01 03 30 00 00 40 40 00 00 41 C8 00 00 40 A0 00 00 41 C8 00 00 00 00 00 00 00 00 00 00 00 00 00 00 00 00 00 00 C2 C8 00 00 00 00 00 00 41 F0 00 00 41 F0 |
18:11:38.103	TX: | 00 01 00 00 00 06 01 03 00 5F 00 32 |
18:11:38.109	RX: | 00 01 00 00 00 67 01 03 64 00 00 42 48 00 00 40 A0 00 00 00 00 00 00 40 00 00 00 44 16 00 00 40 40 00 00 41 C8 00 00 40 A0 00 00 41 C8 00 00 00 00 00 00 00 00 00 00 00 00 00 00 00 00 00 00 C2 48 00 00 00 00 00 00 41 F0 00 00 41 F0 00 00 44 16 55 00 47 46 2D 0E 41 45 00 00 00 00 00 00 00 00 00 00 00 00 2D 0E 41 45 00 00 00 00 |
18:11:38.397	TX: | 00 01 00 00 00 06 01 03 00 6A 00 18 |
18:11:38.412	RX: | 00 01 00 00 00 33 01 03 30 00 00 40 40 00 00 41 C8 00 00 40 A0 00 00 41 C8 00 00 00 00 00 00 00 00 00 00 00 00 00 00 00 00 00 00 C2 C8 00 00 00 00 00 00 41 F0 00 00 41 F0 |
18:11:39.129	TX: | 00 01 00 00 00 06 01 03 00 5F 00 32 |
18:11:39.140	RX: | 00 01 00 00 00 67 01 03 64 00 00 42 48 00 00 40 A0 00 00 00 00 00 00 40 00 00 00 44 16 00 00 40 40 00 00 41 C8 00 00 40 A0 00 00 41 C8 00 00 00 00 00 00 00 00 00 00 00 00 00 00 00 00 00 00 C2 48 00 00 00 00 00 00 41 F0 00 00 41 F0 00 00 44 16 55 00 47 46 33 33 41 45 00 00 00 00 00 00 00 00 00 00 00 00 33 33 41 45 00 00 00 00 |
18:11:39.449	TX: | 00 01 00 00 00 06 01 03 00 6A 00 18 |
18:11:39.463	RX: | 00 01 00 00 00 33 01 03 30 00 00 40 40 00 00 41 C8 00 00 40 A0 00 00 41 C8 00 00 00 00 00 00 00 00 00 00 00 00 00 00 00 00 00 00 C2 C8 00 00 00 00 00 00 41 F0 00 00 41 F0 |
18:11:40.159	TX: | 00 01 00 00 00 06 01 03 00 5F 00 32 |
18:11:40.165	RX: | 00 01 00 00 00 67 01 03 64 00 00 42 48 00 00 40 A0 00 00 00 00 00 00 40 00 00 00 44 16 00 00 40 40 00 00 41 C8 00 00 40 A0 00 00 41 C8 00 00 00 00 00 00 00 00 00 00 00 00 00 00 00 00 00 00 C2 48 00 00 00 00 00 00 41 F0 00 00 41 F0 00 00 44 16 55 00 47 46 33 9C 41 45 00 00 00 00 00 00 00 00 00 00 00 00 33 9C 41 45 00 00 00 00 |
18:11:40.501	TX: | 00 01 00 00 00 06 01 03 00 6A 00 18 |
18:11:40.514	RX: | 00 01 00 00 00 33 01 03 30 00 00 40 40 00 00 41 C8 00 00 40 A0 00 00 41 C8 00 00 00 00 00 00 00 00 00 00 00 00 00 00 00 00 00 00 C2 C8 00 00 00 00 00 00 41 F0 00 00 41 F0 |
18:11:41.187	TX: | 00 01 00 00 00 06 01 03 00 5F 00 32 |
18:11:41.192	RX: | 00 01 00 00 00 67 01 03 64 00 00 42 48 00 00 40 A0 00 00 00 00 00 00 40 00 00 00 44 16 00 00 40 40 00 00 41 C8 00 00 40 A0 00 00 41 C8 00 00 00 00 00 00 00 00 00 00 00 00 00 00 00 00 00 00 C2 48 00 00 00 00 00 00 41 F0 00 00 41 F0 00 00 44 16 55 00 47 46 3A 94 41 45 00 00 00 00 00 00 00 00 00 00 00 00 3A 94 41 45 00 00 00 00 |
18:11:41.558	TX: | 00 01 00 00 00 06 01 03 00 6A 00 18 |
18:11:41.571	RX: | 00 01 00 00 00 33 01 03 30 00 00 40 40 00 00 41 C8 00 00 40 A0 00 00 41 C8 00 00 00 00 00 00 00 00 00 00 00 00 00 00 00 00 00 00 C2 C8 00 00 00 00 00 00 41 F0 00 00 41 F0 |
18:11:45.627	TX: | 00 01 00 00 00 06 01 03 00 5F 00 32 |
18:11:45.632	RX: | 00 01 00 00 00 67 01 03 64 00 00 42 48 00 00 40 A0 00 00 00 00 00 00 40 00 00 00 44 16 00 00 40 40 00 00 41 C8 00 00 40 A0 00 00 41 C8 00 00 00 00 00 00 00 00 00 00 00 00 00 00 00 00 00 00 C2 48 00 00 00 00 00 00 41 F0 00 00 41 F0 00 00 44 16 55 00 47 46 48 EA 41 45 00 00 00 00 00 00 00 00 00 00 00 00 48 EA 41 45 00 00 00 00 |
18:11:45.716	TX: | 00 01 00 00 00 06 01 03 00 6A 00 18 |
18:11:45.729	RX: | 00 01 00 00 00 33 01 03 30 00 00 40 40 00 00 41 C8 00 00 40 A0 00 00 41 C8 00 00 00 00 00 00 00 00 00 00 00 00 00 00 00 00 00 00 C2 C8 00 00 00 00 00 00 41 F0 00 00 41 F0 |
18:11:46.651	TX: | 00 01 00 00 00 06 01 03 00 5F 00 32 |
18:11:46.657	RX: | 00 01 00 00 00 67 01 03 64 00 00 42 48 00 00 40 A0 00 00 00 00 00 00 40 00 00 00 44 16 00 00 40 40 00 00 41 C8 00 00 40 A0 00 00 41 C8 00 00 00 00 00 00 00 00 00 00 00 00 00 00 00 00 00 00 C2 48 00 00 00 00 00 00 41 F0 00 00 41 F0 00 00 44 16 55 00 47 46 3C 36 41 45 00 00 00 00 00 00 00 00 00 00 00 00 3C 36 41 45 00 00 00 00 |
18:11:46.775	TX: | 00 01 00 00 00 06 01 03 00 6A 00 18 |
18:11:46.789	RX: | 00 01 00 00 00 33 01 03 30 00 00 40 40 00 00 41 C8 00 00 40 A0 00 00 41 C8 00 00 00 00 00 00 00 00 00 00 00 00 00 00 00 00 00 00 C2 C8 00 00 00 00 00 00 41 F0 00 00 41 F0 |
